
[2022-06-17 10:58:12]串口:COM99打开故障

[2022-06-17 10:58:12]led屏串口打开失败！

[2022-06-17 10:58:14]串口:COM7打开故障

[2022-06-17 10:58:17]设备被启动！

[2022-06-17 10:58:17]与服务器连接成功！

[2022-06-17 10:58:18]CQ12串口打开成功！

[2022-06-17 10:58:19]没有设备，请选择！

[2022-06-17 10:58:19]没有设备，请选择！

[2022-06-17 10:58:19]没有设备，请选择！

[2022-06-17 13:40:55]串口:COM99打开故障

[2022-06-17 13:40:55]led屏串口打开失败！

[2022-06-17 13:40:57]串口:COM7打开故障

[2022-06-17 13:40:57]设备被启动！

[2022-06-17 13:40:57]与服务器连接成功！

[2022-06-17 13:40:58]CQ12串口打开成功！

[2022-06-17 13:40:58]没有设备，请选择！

[2022-06-17 13:40:59]没有设备，请选择！

[2022-06-17 13:40:59]没有设备，请选择！

[2022-06-17 13:41:31]Socket事件_发送成功:{"devId":"okq20201106301","err":"","func":100,"message":"keep-alive"}

[2022-06-17 13:43:26]串口:COM99打开故障

[2022-06-17 13:43:26]led屏串口打开失败！

[2022-06-17 13:43:28]串口:COM7打开故障

[2022-06-17 13:43:28]设备被启动！

[2022-06-17 13:43:28]与服务器连接成功！

[2022-06-17 13:43:29]CQ12串口打开成功！

[2022-06-17 13:43:29]没有设备，请选择！

[2022-06-17 13:43:30]没有设备，请选择！

[2022-06-17 13:43:30]没有设备，请选择！

[2022-06-17 13:45:19]串口:COM99打开故障

[2022-06-17 13:45:19]led屏串口打开失败！

[2022-06-17 13:45:21]串口:COM7打开故障

[2022-06-17 13:45:21]设备被启动！

[2022-06-17 13:45:21]与服务器连接成功！

[2022-06-17 13:45:22]CQ12串口打开成功！

[2022-06-17 13:45:22]没有设备，请选择！

[2022-06-17 13:45:22]没有设备，请选择！

[2022-06-17 13:45:23]没有设备，请选择！

[2022-06-17 13:48:17]串口:COM99打开故障

[2022-06-17 13:48:17]led屏串口打开失败！

[2022-06-17 13:48:21]串口:COM7打开故障

[2022-06-17 13:48:32]设备被启动！

[2022-06-17 13:48:32]与服务器连接成功！

[2022-06-17 13:48:33]CQ12串口打开成功！

[2022-06-17 13:48:33]没有设备，请选择！

[2022-06-17 13:48:33]没有设备，请选择！

[2022-06-17 13:48:34]没有设备，请选择！

[2022-06-17 13:48:42]串口:COM99打开故障

[2022-06-17 13:48:42]led屏串口打开失败！

[2022-06-17 13:48:58]串口:COM99打开故障

[2022-06-17 13:48:58]led屏串口打开失败！

[2022-06-17 13:49:00]串口:COM7打开故障

[2022-06-17 13:49:00]设备被启动！

[2022-06-17 13:49:00]与服务器连接成功！

[2022-06-17 13:49:01]CQ12串口打开成功！

[2022-06-17 13:49:01]没有设备，请选择！

[2022-06-17 13:49:01]没有设备，请选择！

[2022-06-17 13:49:01]没有设备，请选择！

[2022-06-17 13:49:30]Socket事件_发送成功:{"devId":"okq20201106301","err":"","func":100,"message":"keep-alive"}

[2022-06-17 13:50:30]串口:COM99打开故障

[2022-06-17 13:50:30]led屏串口打开失败！

[2022-06-17 13:50:31]串口:COM7打开故障

[2022-06-17 13:50:31]设备被启动！

[2022-06-17 13:50:31]与服务器连接成功！

[2022-06-17 13:50:32]CQ12串口打开成功！

[2022-06-17 13:50:33]没有设备，请选择！

[2022-06-17 13:50:33]没有设备，请选择！

[2022-06-17 13:50:33]没有设备，请选择！

[2022-06-17 13:51:01]Socket事件_发送成功:{"devId":"okq20201106301","err":"","func":100,"message":"keep-alive"}

[2022-06-17 13:51:31]Socket事件_发送成功:{"devId":"okq20201106301","err":"","func":100,"message":"keep-alive"}

[2022-06-17 13:52:01]Socket事件_发送成功:{"devId":"okq20201106301","err":"","func":100,"message":"keep-alive"}

[2022-06-17 13:52:31]Socket事件_发送成功:{"devId":"okq20201106301","err":"","func":100,"message":"keep-alive"}

[2022-06-17 13:53:01]Socket事件_发送成功:{"devId":"okq20201106301","err":"","func":100,"message":"keep-alive"}

[2022-06-17 13:53:31]Socket事件_发送成功:{"devId":"okq20201106301","err":"","func":100,"message":"keep-alive"}

[2022-06-17 13:54:01]Socket事件_发送成功:{"devId":"okq20201106301","err":"","func":100,"message":"keep-alive"}

[2022-06-17 14:08:10]串口:COM99打开故障

[2022-06-17 14:08:10]led屏串口打开失败！

[2022-06-17 14:08:12]小气候串口打开成功！

[2022-06-17 14:08:13]设备被启动！

[2022-06-17 14:08:13]与服务器连接成功！

[2022-06-17 14:08:14]没有设备，请选择！

[2022-06-17 14:08:15]没有设备，请选择！

[2022-06-17 14:08:15]没有设备，请选择！

[2022-06-17 14:08:43]Socket事件_发送成功:{"devId":"okq20201106301","err":"","func":100,"message":"keep-alive"}

[2022-06-17 14:08:53]串口:COM99打开故障

[2022-06-17 14:08:53]led屏串口打开失败！

[2022-06-17 14:08:59]小气候串口打开成功！

[2022-06-17 14:09:00]设备被启动！

[2022-06-17 14:09:00]与服务器连接成功！

[2022-06-17 14:09:02]没有设备，请选择！

[2022-06-17 14:09:02]没有设备，请选择！

[2022-06-17 14:09:02]没有设备，请选择！

[2022-06-17 14:09:30]Socket事件_发送成功:{"devId":"okq20201106301","err":"","func":100,"message":"keep-alive"}

[2022-06-17 14:10:00]Socket事件_发送成功:{"devId":"okq20201106301","err":"","func":100,"message":"keep-alive"}

[2022-06-17 14:10:06]串口:COM99打开故障

[2022-06-17 14:10:06]led屏串口打开失败！

[2022-06-17 14:10:15]小气候串口打开成功！

[2022-06-17 14:10:16]设备被启动！

[2022-06-17 14:10:16]与服务器连接成功！

[2022-06-17 14:10:17]没有设备，请选择！

[2022-06-17 14:10:18]没有设备，请选择！

[2022-06-17 14:10:18]没有设备，请选择！

[2022-06-17 14:10:46]Socket事件_发送成功:{"devId":"okq20201106301","err":"","func":100,"message":"keep-alive"}

[2022-06-17 14:11:19]Socket事件_发送成功:{"devId":"okq20201106301","err":"","func":100,"message":"keep-alive"}

[2022-06-17 14:11:19]发:AA 00 64 01 A5

[2022-06-17 14:11:21]小气候数据读取指令连续5次发送未收到回复，指令为：AA 00 64 01 A5

[2022-06-17 14:11:21]发:AA 00 64 02 A5

[2022-06-17 14:11:22]小气候数据读取指令连续5次发送未收到回复，指令为：AA 00 64 02 A5

[2022-06-17 14:11:22]发:AA 00 64 03 A5

[2022-06-17 14:11:23]小气候数据读取指令连续5次发送未收到回复，指令为：AA 00 64 03 A5

[2022-06-17 14:11:23]发:AA 00 64 04 A5

[2022-06-17 14:11:25]小气候数据读取指令连续5次发送未收到回复，指令为：AA 00 64 04 A5

[2022-06-17 14:11:25]发:AA 00 64 05 A5

[2022-06-17 14:11:26]小气候数据读取指令连续5次发送未收到回复，指令为：AA 00 64 05 A5

[2022-06-17 14:11:26]发:AA 00 64 06 A5

[2022-06-17 14:11:27]小气候数据读取指令连续5次发送未收到回复，指令为：AA 00 64 06 A5

[2022-06-17 14:11:27]发:AA 00 64 07 A5

[2022-06-17 14:11:28]小气候数据读取指令连续5次发送未收到回复，指令为：AA 00 64 07 A5

[2022-06-17 14:11:28]发:AA 00 64 08 A5

[2022-06-17 14:15:59]串口:COM99打开故障

[2022-06-17 14:15:59]led屏串口打开失败！

[2022-06-17 14:20:42]串口:COM99打开故障

[2022-06-17 14:20:42]led屏串口打开失败！

[2022-06-17 14:20:44]串口:COM6打开故障

[2022-06-17 14:20:44]设备被启动！

[2022-06-17 14:20:44]与服务器连接成功！

[2022-06-17 14:20:45]串口:COM6打开故障

[2022-06-17 14:20:45]没有设备，请选择！

[2022-06-17 14:20:46]没有设备，请选择！

[2022-06-17 14:20:46]没有设备，请选择！

[2022-06-17 14:21:14]Socket事件_发送成功:{"devId":"okq20201106301","err":"","func":100,"message":"keep-alive"}

[2022-06-17 14:27:38]串口:COM99打开故障

[2022-06-17 14:27:38]led屏串口打开失败！

[2022-06-17 14:27:40]小气候串口打开成功！

[2022-06-17 14:27:40]设备被启动！

[2022-06-17 14:27:40]与服务器连接成功！

[2022-06-17 14:27:41]串口:COM6打开故障

[2022-06-17 14:27:41]没有设备，请选择！

[2022-06-17 14:27:42]没有设备，请选择！

[2022-06-17 14:27:42]没有设备，请选择！

[2022-06-17 14:28:10]Socket事件_发送成功:{"devId":"okq20201106301","err":"","func":100,"message":"keep-alive"}

[2022-06-17 14:28:45]Socket事件_发送成功:{"devId":"okq20201106301","err":"","func":100,"message":"keep-alive"}

[2022-06-17 14:28:46]发:AA 00 64 01 A5

[2022-06-17 14:28:47]小气候数据读取指令连续5次发送未收到回复，指令为：AA 00 64 01 A5

[2022-06-17 14:28:49]发:AA 00 64 02 A5

[2022-06-17 14:28:50]小气候数据读取指令连续5次发送未收到回复，指令为：AA 00 64 02 A5

[2022-06-17 14:28:52]发:AA 00 64 03 A5

[2022-06-17 14:28:53]小气候数据读取指令连续5次发送未收到回复，指令为：AA 00 64 03 A5

[2022-06-17 14:28:55]发:AA 00 64 04 A5

[2022-06-17 14:28:56]小气候数据读取指令连续5次发送未收到回复，指令为：AA 00 64 04 A5

[2022-06-17 14:28:58]发:AA 00 64 05 A5

[2022-06-17 14:28:59]小气候数据读取指令连续5次发送未收到回复，指令为：AA 00 64 05 A5

[2022-06-17 14:29:01]发:AA 00 64 06 A5

[2022-06-17 14:29:02]小气候数据读取指令连续5次发送未收到回复，指令为：AA 00 64 06 A5

[2022-06-17 14:29:04]发:AA 00 64 07 A5

[2022-06-17 14:29:06]小气候数据读取指令连续5次发送未收到回复，指令为：AA 00 64 07 A5

[2022-06-17 14:29:07]发:AA 00 64 08 A5

[2022-06-17 14:29:09]小气候数据读取指令连续5次发送未收到回复，指令为：AA 00 64 08 A5

[2022-06-17 14:29:10]发:AA 00 64 0A A5

[2022-06-17 14:29:11]小气候数据读取指令连续5次发送未收到回复，指令为：AA 00 64 0A A5

[2022-06-17 14:29:13]发:AA 00 64 0B A5

[2022-06-17 14:29:14]Socket事件_发送成功:{"devId":"okq20201106301","err":"","func":100,"message":"keep-alive"}

[2022-06-17 14:29:14]小气候数据读取指令连续5次发送未收到回复，指令为：AA 00 64 0B A5

[2022-06-17 14:29:16]发:AA 00 64 0C A5

[2022-06-17 14:29:17]小气候数据读取指令连续5次发送未收到回复，指令为：AA 00 64 0C A5

[2022-06-17 14:29:23]发:AA 00 64 0D A5

[2022-06-17 14:29:24]小气候数据读取指令连续5次发送未收到回复，指令为：AA 00 64 0D A5

[2022-06-17 14:29:24]发:AA 00 64 0E A5

[2022-06-17 14:29:25]小气候数据读取指令连续5次发送未收到回复，指令为：AA 00 64 0E A5

[2022-06-17 14:29:25]发:AA 00 64 0F A5

[2022-06-17 14:29:27]小气候数据读取指令连续5次发送未收到回复，指令为：AA 00 64 0F A5

[2022-06-17 14:29:27]发:AA 00 64 31 A5

[2022-06-17 14:29:28]小气候数据读取指令连续5次发送未收到回复，指令为：AA 00 64 31 A5

[2022-06-17 14:29:28]发:09 03 00 00 00 01 85 42

[2022-06-17 14:29:29]小气候数据读取指令连续5次发送未收到回复，指令为：09 03 00 00 00 01 85 42

[2022-06-17 14:29:29]发:15 03 00 00 00 01 87 1E

[2022-06-17 14:29:30]小气候数据读取指令连续5次发送未收到回复，指令为：15 03 00 00 00 01 87 1E

[2022-06-17 14:29:30]发:1D 03 00 00 00 01 86 56

[2022-06-17 14:29:32]小气候数据读取指令连续5次发送未收到回复，指令为：1D 03 00 00 00 01 86 56

[2022-06-17 14:29:32]发:20 03 00 00 00 01 82 BB

[2022-06-17 14:29:33]小气候数据读取指令连续5次发送未收到回复，指令为：20 03 00 00 00 01 82 BB

[2022-06-17 14:29:33]发:21 03 00 00 00 01 83 6A

[2022-06-17 14:29:34]小气候数据读取指令连续5次发送未收到回复，指令为：21 03 00 00 00 01 83 6A

[2022-06-17 14:29:34]发:1E 03 00 00 00 01 86 65

[2022-06-17 14:29:35]小气候数据读取指令连续5次发送未收到回复，指令为：1E 03 00 00 00 01 86 65

[2022-06-17 14:29:35]发:14 03 00 00 00 02 C6 CE

[2022-06-17 14:29:37]小气候数据读取指令连续5次发送未收到回复，指令为：14 03 00 00 00 02 C6 CE

[2022-06-17 14:29:37]发:10 03 00 00 00 02 C7 4A

[2022-06-17 14:29:38]小气候数据读取指令连续5次发送未收到回复，指令为：10 03 00 00 00 02 C7 4A

[2022-06-17 14:29:38]发:16 03 01 00 00 02 D0 C6

[2022-06-17 14:29:39]小气候数据读取指令连续5次发送未收到回复，指令为：16 03 01 00 00 02 D0 C6

[2022-06-17 14:29:39]发:17 03 00 2A 00 01 A7 34

[2022-06-17 14:29:41]小气候数据读取指令连续5次发送未收到回复，指令为：17 03 00 2A 00 01 A7 34

[2022-06-17 14:29:41]发:18 03 00 2A 00 01 A7 34

[2022-06-17 14:29:42]小气候数据读取指令连续5次发送未收到回复，指令为：18 03 00 2A 00 01 A7 34

[2022-06-17 14:29:42]发:06 03 00 00 00 01 85 BD

[2022-06-17 14:29:43]小气候数据读取指令连续5次发送未收到回复，指令为：06 03 00 00 00 01 85 BD

[2022-06-17 14:29:43]发:07 03 00 00 00 01 84 6C

[2022-06-17 14:29:44]Socket事件_发送成功:{"devId":"okq20201106301","err":"","func":100,"message":"keep-alive"}

[2022-06-17 14:29:44]小气候数据读取指令连续5次发送未收到回复，指令为：07 03 00 00 00 01 84 6C

[2022-06-17 14:29:44]发:0A 03 00 00 00 01 85 71

[2022-06-17 14:29:46]小气候数据读取指令连续5次发送未收到回复，指令为：0A 03 00 00 00 01 85 71

[2022-06-17 14:29:46]发:01 03 00 01 00 01 D5 CA

[2022-06-17 14:29:46]协议:9  收到:01 83 02 C0 F1

[2022-06-17 14:29:46]发:01 03 00 02 00 01 25 CA

[2022-06-17 14:29:46]协议:9  收到:01 83 02 C0 F1

[2022-06-17 14:29:46]发:01 03 00 05 00 01 94 0B

[2022-06-17 14:29:46]协议:9  收到:01 03 02 00 01 79 84

[2022-06-17 14:29:46]发:01 03 00 04 00 02 85 CA

[2022-06-17 14:29:47]协议:9  收到:01 03 04 00 02 00 01 9A 33

[2022-06-17 14:29:49]程序运行磁盘剩余空间：235.7843 GB

[2022-06-17 14:29:49]区域1 标题：祥符区八里湾基地

[2022-06-17 14:29:49]区域2 内容：温度:-161.43℃

[2022-06-17 14:29:49]区域3 内容：湿度:-161%

[2022-06-17 14:29:49]区域4 内容：大气压:0.01Kpa

[2022-06-17 14:29:49]区域5 内容：

[2022-06-17 14:29:49]Get token md5 Str：sendmsg={"cmd":{"delete":{"del_all":1}},"ids_dev":"1214120042","sno":1}&ts=1655447390&type=pkts_program&user=zzokq&key=b7d7e5c520bcdd47351bedc502a4b4b3

[2022-06-17 14:29:49]发送清屏指令：{"user":"zzokq","ts":"1655447390","sendmsg":"{\"cmd\":{\"delete\":{\"del_all\":1}},\"ids_dev\":\"1214120042\",\"sno\":1}","type":"pkts_program","token":"E6A710A5A442FDB891732D4D3B5DFCD7"}

[2022-06-17 14:29:49]收到：{"sno":1352684324}

[2022-06-17 14:29:49]Get token md5 Str：sendmsg={"pkts_program":{"property_pro":{"width":80,"height":160},"list_region":[{"info_pos":{"x":0,"y":0,"w":160,"h":16},"list_item":[{"info_animate":{"model_continue":null,"speed":null},"type_item":"text","text":"祥符区八里湾基地"}]},{"info_pos":{"x":0,"y":16,"w":160,"h":16},"list_item":[{"info_animate":{"model_continue":null,"speed":null},"type_item":"text","text":"温度:-161.43℃"}]},{"info_pos":{"x":0,"y":32,"w":160,"h":16},"list_item":[{"info_animate":{"model_continue":null,"speed":null},"type_item":"text","text":"湿度:-161%"}]},{"info_pos":{"x":0,"y":48,"w":160,"h":16},"list_item":[{"info_animate":{"model_continue":null,"speed":null},"type_item":"text","text":"大气压:0.01Kpa"}]},{"info_pos":{"x":0,"y":64,"w":160,"h":16},"list_item":[{"info_animate":{"model_continue":null,"speed":null},"type_item":"text","text":""}]}],"id_pro":1},"ids_dev":"1214120042","sno":1}&ts=1655447390&type=pkts_program&user=zzokq&key=b7d7e5c520bcdd47351bedc502a4b4b3

[2022-06-17 14:29:49]发送展示数据指令：{"user":"zzokq","ts":"1655447390","sendmsg":"{\"pkts_program\":{\"property_pro\":{\"width\":80,\"height\":160},\"list_region\":[{\"info_pos\":{\"x\":0,\"y\":0,\"w\":160,\"h\":16},\"list_item\":[{\"info_animate\":{\"model_continue\":null,\"speed\":null},\"type_item\":\"text\",\"text\":\"祥符区八里湾基地\"}]},{\"info_pos\":{\"x\":0,\"y\":16,\"w\":160,\"h\":16},\"list_item\":[{\"info_animate\":{\"model_continue\":null,\"speed\":null},\"type_item\":\"text\",\"text\":\"温度:-161.43℃\"}]},{\"info_pos\":{\"x\":0,\"y\":32,\"w\":160,\"h\":16},\"list_item\":[{\"info_animate\":{\"model_continue\":null,\"speed\":null},\"type_item\":\"text\",\"text\":\"湿度:-161%\"}]},{\"info_pos\":{\"x\":0,\"y\":48,\"w\":160,\"h\":16},\"list_item\":[{\"info_animate\":{\"model_continue\":null,\"speed\":null},\"type_item\":\"text\",\"text\":\"大气压:0.01Kpa\"}]},{\"info_pos\":{\"x\":0,\"y\":64,\"w\":160,\"h\":16},\"list_item\":[{\"info_animate\":{\"model_continue\":null,\"speed\":null},\"type_item\":\"text\",\"text\":\"\"}]}],\"id_pro\":1},\"ids_dev\":\"1214120042\",\"sno\":1}","type":"pkts_program","token":"7871BF7B80198B33CC94BF635321ECDD"}

[2022-06-17 14:29:50]收到：{"sno":1352684326}

[2022-06-17 14:30:14]Socket事件_发送成功:{"devId":"okq20201106301","err":"","func":100,"message":"keep-alive"}

[2022-06-17 14:45:13]串口:COM99打开故障

[2022-06-17 14:45:13]led屏串口打开失败！

[2022-06-17 14:45:16]小气候串口打开成功！

[2022-06-17 14:45:16]设备被启动！

[2022-06-17 14:45:16]与服务器连接成功！

[2022-06-17 14:45:17]串口:COM6打开故障

[2022-06-17 14:45:17]没有设备，请选择！

[2022-06-17 14:45:17]没有设备，请选择！

[2022-06-17 14:45:17]没有设备，请选择！

[2022-06-17 14:45:46]Socket事件_发送成功:{"devId":"okq20201106301","err":"","func":100,"message":"keep-alive"}

[2022-06-17 14:46:18]Socket事件_发送成功:{"devId":"okq20201106301","err":"","func":100,"message":"keep-alive"}

[2022-06-17 14:46:18]发:AA 00 64 01 A5

[2022-06-17 14:46:20]小气候数据读取指令连续5次发送未收到回复，指令为：AA 00 64 01 A5

[2022-06-17 14:46:20]发:AA 00 64 02 A5

[2022-06-17 14:46:21]小气候数据读取指令连续5次发送未收到回复，指令为：AA 00 64 02 A5

[2022-06-17 14:46:21]发:AA 00 64 03 A5

[2022-06-17 14:46:22]小气候数据读取指令连续5次发送未收到回复，指令为：AA 00 64 03 A5

[2022-06-17 14:46:22]发:AA 00 64 04 A5

[2022-06-17 14:46:23]小气候数据读取指令连续5次发送未收到回复，指令为：AA 00 64 04 A5

[2022-06-17 14:46:23]发:AA 00 64 05 A5

[2022-06-17 14:46:25]小气候数据读取指令连续5次发送未收到回复，指令为：AA 00 64 05 A5

[2022-06-17 14:46:25]发:AA 00 64 06 A5

[2022-06-17 14:46:26]小气候数据读取指令连续5次发送未收到回复，指令为：AA 00 64 06 A5

[2022-06-17 14:46:26]发:AA 00 64 07 A5

[2022-06-17 14:46:27]小气候数据读取指令连续5次发送未收到回复，指令为：AA 00 64 07 A5

[2022-06-17 14:46:27]发:AA 00 64 08 A5

[2022-06-17 14:46:29]小气候数据读取指令连续5次发送未收到回复，指令为：AA 00 64 08 A5

[2022-06-17 14:46:29]发:AA 00 64 0A A5

[2022-06-17 14:46:30]小气候数据读取指令连续5次发送未收到回复，指令为：AA 00 64 0A A5

[2022-06-17 14:46:30]发:AA 00 64 0B A5

[2022-06-17 14:46:31]小气候数据读取指令连续5次发送未收到回复，指令为：AA 00 64 0B A5

[2022-06-17 14:46:31]发:AA 00 64 0C A5

[2022-06-17 14:46:32]小气候数据读取指令连续5次发送未收到回复，指令为：AA 00 64 0C A5

[2022-06-17 14:46:32]发:AA 00 64 0D A5

[2022-06-17 14:46:34]小气候数据读取指令连续5次发送未收到回复，指令为：AA 00 64 0D A5

[2022-06-17 14:46:34]发:AA 00 64 0E A5

[2022-06-17 14:46:35]小气候数据读取指令连续5次发送未收到回复，指令为：AA 00 64 0E A5

[2022-06-17 14:46:35]发:AA 00 64 0F A5

[2022-06-17 14:46:36]小气候数据读取指令连续5次发送未收到回复，指令为：AA 00 64 0F A5

[2022-06-17 14:46:36]发:AA 00 64 31 A5

[2022-06-17 14:46:37]小气候数据读取指令连续5次发送未收到回复，指令为：AA 00 64 31 A5

[2022-06-17 14:46:37]发:09 03 00 00 00 01 85 42

[2022-06-17 14:46:39]小气候数据读取指令连续5次发送未收到回复，指令为：09 03 00 00 00 01 85 42

[2022-06-17 14:46:39]发:15 03 00 00 00 01 87 1E

[2022-06-17 14:46:40]小气候数据读取指令连续5次发送未收到回复，指令为：15 03 00 00 00 01 87 1E

[2022-06-17 14:46:40]发:1D 03 00 00 00 01 86 56

[2022-06-17 14:46:41]小气候数据读取指令连续5次发送未收到回复，指令为：1D 03 00 00 00 01 86 56

[2022-06-17 14:46:41]发:20 03 00 00 00 01 82 BB

[2022-06-17 14:46:42]小气候数据读取指令连续5次发送未收到回复，指令为：20 03 00 00 00 01 82 BB

[2022-06-17 14:46:42]发:21 03 00 00 00 01 83 6A

[2022-06-17 14:46:44]小气候数据读取指令连续5次发送未收到回复，指令为：21 03 00 00 00 01 83 6A

[2022-06-17 14:46:44]发:1E 03 00 00 00 01 86 65

[2022-06-17 14:46:45]小气候数据读取指令连续5次发送未收到回复，指令为：1E 03 00 00 00 01 86 65

[2022-06-17 14:46:45]发:14 03 00 00 00 02 C6 CE

[2022-06-17 14:46:46]小气候数据读取指令连续5次发送未收到回复，指令为：14 03 00 00 00 02 C6 CE

[2022-06-17 14:46:46]发:10 03 00 00 00 02 C7 4A

[2022-06-17 14:46:48]小气候数据读取指令连续5次发送未收到回复，指令为：10 03 00 00 00 02 C7 4A

[2022-06-17 14:46:48]发:16 03 01 00 00 02 D0 C6

[2022-06-17 14:46:48]Socket事件_发送成功:{"devId":"okq20201106301","err":"","func":100,"message":"keep-alive"}

[2022-06-17 14:46:49]小气候数据读取指令连续5次发送未收到回复，指令为：16 03 01 00 00 02 D0 C6

[2022-06-17 14:46:49]发:17 03 00 2A 00 01 A7 34

[2022-06-17 14:46:50]小气候数据读取指令连续5次发送未收到回复，指令为：17 03 00 2A 00 01 A7 34

[2022-06-17 14:46:50]发:18 03 00 2A 00 01 A7 34

[2022-06-17 14:46:51]小气候数据读取指令连续5次发送未收到回复，指令为：18 03 00 2A 00 01 A7 34

[2022-06-17 14:46:51]发:06 03 00 00 00 01 85 BD

[2022-06-17 14:46:53]小气候数据读取指令连续5次发送未收到回复，指令为：06 03 00 00 00 01 85 BD

[2022-06-17 14:46:53]发:07 03 00 00 00 01 84 6C

[2022-06-17 14:46:54]小气候数据读取指令连续5次发送未收到回复，指令为：07 03 00 00 00 01 84 6C

[2022-06-17 14:46:54]发:0A 03 00 00 00 01 85 71

[2022-06-17 14:46:55]小气候数据读取指令连续5次发送未收到回复，指令为：0A 03 00 00 00 01 85 71

[2022-06-17 14:46:55]发:01 03 00 01 00 01 D5 CA

[2022-06-17 14:46:55]协议:9  收到:01 83 02 C0 F1

[2022-06-17 14:47:16]发:01 03 00 02 00 01 25 CA

[2022-06-17 14:47:16]协议:9  收到:01 83 02 C0 F1

[2022-06-17 14:47:24]发:01 03 00 05 00 01 94 0B

[2022-06-17 14:47:24]Socket事件_发送成功:{"devId":"okq20201106301","err":"","func":100,"message":"keep-alive"}

[2022-06-17 14:47:25]协议:9  收到:01 03 02 00 02 39 85

[2022-06-17 15:33:07]串口:COM99打开故障

[2022-06-17 15:33:07]led屏串口打开失败！

[2022-06-17 15:33:10]小气候串口打开成功！

[2022-06-17 15:33:10]设备被启动！

[2022-06-17 15:33:10]与服务器连接成功！

[2022-06-17 15:33:11]串口:COM6打开故障

[2022-06-17 15:33:11]没有设备，请选择！

[2022-06-17 15:33:11]没有设备，请选择！

[2022-06-17 15:33:11]没有设备，请选择！

[2022-06-17 15:33:40]Socket事件_发送成功:{"devId":"okq20201106301","err":"","func":100,"message":"keep-alive"}

[2022-06-17 15:34:13]Socket事件_发送成功:{"devId":"okq20201106301","err":"","func":100,"message":"keep-alive"}

[2022-06-17 15:34:17]发:AA 00 64 01 A5

[2022-06-17 15:34:18]小气候数据读取指令连续5次发送未收到回复，指令为：AA 00 64 01 A5

[2022-06-17 15:34:18]发:AA 00 64 02 A5

[2022-06-17 15:34:20]小气候数据读取指令连续5次发送未收到回复，指令为：AA 00 64 02 A5

[2022-06-17 15:34:20]发:AA 00 64 03 A5

[2022-06-17 15:34:21]小气候数据读取指令连续5次发送未收到回复，指令为：AA 00 64 03 A5

[2022-06-17 15:34:21]发:AA 00 64 04 A5

[2022-06-17 15:34:22]小气候数据读取指令连续5次发送未收到回复，指令为：AA 00 64 04 A5

[2022-06-17 15:34:22]发:AA 00 64 05 A5

[2022-06-17 15:34:24]小气候数据读取指令连续5次发送未收到回复，指令为：AA 00 64 05 A5

[2022-06-17 15:34:24]发:AA 00 64 06 A5

[2022-06-17 15:34:25]小气候数据读取指令连续5次发送未收到回复，指令为：AA 00 64 06 A5

[2022-06-17 15:34:25]发:AA 00 64 07 A5

[2022-06-17 15:34:26]小气候数据读取指令连续5次发送未收到回复，指令为：AA 00 64 07 A5

[2022-06-17 15:34:26]发:AA 00 64 08 A5

[2022-06-17 15:34:27]小气候数据读取指令连续5次发送未收到回复，指令为：AA 00 64 08 A5

[2022-06-17 15:34:27]发:AA 00 64 0A A5

[2022-06-17 15:34:29]小气候数据读取指令连续5次发送未收到回复，指令为：AA 00 64 0A A5

[2022-06-17 15:34:29]发:AA 00 64 0B A5

[2022-06-17 15:34:30]小气候数据读取指令连续5次发送未收到回复，指令为：AA 00 64 0B A5

[2022-06-17 15:34:30]发:AA 00 64 0C A5

[2022-06-17 15:34:31]小气候数据读取指令连续5次发送未收到回复，指令为：AA 00 64 0C A5

[2022-06-17 15:34:31]发:AA 00 64 0D A5

[2022-06-17 15:34:32]小气候数据读取指令连续5次发送未收到回复，指令为：AA 00 64 0D A5

[2022-06-17 15:34:32]发:AA 00 64 0E A5

[2022-06-17 15:34:34]小气候数据读取指令连续5次发送未收到回复，指令为：AA 00 64 0E A5

[2022-06-17 15:34:34]发:AA 00 64 0F A5

[2022-06-17 15:34:35]小气候数据读取指令连续5次发送未收到回复，指令为：AA 00 64 0F A5

[2022-06-17 15:34:35]发:AA 00 64 31 A5

[2022-06-17 15:34:36]小气候数据读取指令连续5次发送未收到回复，指令为：AA 00 64 31 A5

[2022-06-17 15:34:36]发:09 03 00 00 00 01 85 42

[2022-06-17 15:34:37]小气候数据读取指令连续5次发送未收到回复，指令为：09 03 00 00 00 01 85 42

[2022-06-17 15:34:37]发:15 03 00 00 00 01 87 1E

[2022-06-17 15:34:39]小气候数据读取指令连续5次发送未收到回复，指令为：15 03 00 00 00 01 87 1E

[2022-06-17 15:34:39]发:1D 03 00 00 00 01 86 56

[2022-06-17 15:34:40]小气候数据读取指令连续5次发送未收到回复，指令为：1D 03 00 00 00 01 86 56

[2022-06-17 15:34:40]发:20 03 00 00 00 01 82 BB

[2022-06-17 15:34:41]小气候数据读取指令连续5次发送未收到回复，指令为：20 03 00 00 00 01 82 BB

[2022-06-17 15:34:41]发:21 03 00 00 00 01 83 6A

[2022-06-17 15:34:42]小气候数据读取指令连续5次发送未收到回复，指令为：21 03 00 00 00 01 83 6A

[2022-06-17 15:34:42]发:1E 03 00 00 00 01 86 65

[2022-06-17 15:34:43]Socket事件_发送成功:{"devId":"okq20201106301","err":"","func":100,"message":"keep-alive"}

[2022-06-17 15:34:44]小气候数据读取指令连续5次发送未收到回复，指令为：1E 03 00 00 00 01 86 65

[2022-06-17 15:34:44]发:14 03 00 00 00 02 C6 CE

[2022-06-17 15:34:45]小气候数据读取指令连续5次发送未收到回复，指令为：14 03 00 00 00 02 C6 CE

[2022-06-17 15:34:45]发:10 03 00 00 00 02 C7 4A

[2022-06-17 15:34:46]小气候数据读取指令连续5次发送未收到回复，指令为：10 03 00 00 00 02 C7 4A

[2022-06-17 15:34:46]发:16 03 01 00 00 02 D0 C6

[2022-06-17 15:34:48]小气候数据读取指令连续5次发送未收到回复，指令为：16 03 01 00 00 02 D0 C6

[2022-06-17 15:34:48]发:17 03 00 2A 00 01 A7 34

[2022-06-17 15:34:49]小气候数据读取指令连续5次发送未收到回复，指令为：17 03 00 2A 00 01 A7 34

[2022-06-17 15:34:49]发:18 03 00 2A 00 01 A7 34

[2022-06-17 15:34:50]小气候数据读取指令连续5次发送未收到回复，指令为：18 03 00 2A 00 01 A7 34

[2022-06-17 15:34:50]发:06 03 00 00 00 01 85 BD

[2022-06-17 15:34:51]小气候数据读取指令连续5次发送未收到回复，指令为：06 03 00 00 00 01 85 BD

[2022-06-17 15:34:51]发:07 03 00 00 00 01 84 6C

[2022-06-17 15:34:53]小气候数据读取指令连续5次发送未收到回复，指令为：07 03 00 00 00 01 84 6C

[2022-06-17 15:34:53]发:0A 03 00 00 00 01 85 71

[2022-06-17 15:34:54]小气候数据读取指令连续5次发送未收到回复，指令为：0A 03 00 00 00 01 85 71

[2022-06-17 15:34:54]发:01 03 00 01 00 01 D5 CA

[2022-06-17 15:34:55]小气候数据读取指令连续5次发送未收到回复，指令为：01 03 00 01 00 01 D5 CA

[2022-06-17 15:34:55]发:01 03 00 02 00 01 25 CA

[2022-06-17 15:34:56]小气候数据读取指令连续5次发送未收到回复，指令为：01 03 00 02 00 01 25 CA

[2022-06-17 15:34:56]发:01 03 00 05 00 01 94 0B

[2022-06-17 15:34:58]小气候数据读取指令连续5次发送未收到回复，指令为：01 03 00 05 00 01 94 0B

[2022-06-17 15:34:58]发:01 03 00 04 00 02 85 CA

[2022-06-17 15:34:59]小气候数据读取指令连续5次发送未收到回复，指令为：01 03 00 04 00 02 85 CA

[2022-06-17 15:34:59]发:03 03 00 12 00 01 25 ED

[2022-06-17 15:34:59]协议:9  收到:03 03 02 00 00 C1 84

[2022-06-17 15:35:13]发:03 03 00 13 00 01 74 2D

[2022-06-17 15:35:13]Socket事件_发送成功:{"devId":"okq20201106301","err":"","func":100,"message":"keep-alive"}

[2022-06-17 15:35:13]协议:9  收到:03 03 02 01 0D 01 D1

[2022-06-17 15:35:13]发:03 03 00 06 00 01 65 E9

[2022-06-17 15:35:14]协议:9  收到:03 03 02 02 BC C1 55

[2022-06-17 15:35:14]发:03 03 00 15 00 01 94 2C

[2022-06-17 15:35:14]协议:9  收到:03 03 02 00 00 C1 84

[2022-06-17 15:35:17]程序运行磁盘剩余空间：235.7838 GB

[2022-06-17 15:35:43]Socket事件_发送成功:{"devId":"okq20201106301","err":"","func":100,"message":"keep-alive"}

[2022-06-17 15:36:45]发:1E 03 00 00 00 01 86 65

[2022-06-17 15:36:45]Socket事件_发送成功:{"devId":"okq20201106301","err":"","func":100,"message":"keep-alive"}

[2022-06-17 15:36:46]小气候数据读取指令连续5次发送未收到回复，指令为：1E 03 00 00 00 01 86 65

[2022-06-17 15:36:50]Socket事件_发送成功:{"devId":"okq20201106301","err":"","func":100,"message":"keep-alive"}

[2022-06-17 15:36:50]发:03 03 00 12 00 01 25 ED

[2022-06-17 15:36:50]协议:9  收到:03 03 02 00 00 C1 84

[2022-06-17 15:36:52]发:03 03 00 13 00 01 74 2D

[2022-06-17 15:36:52]协议:9  收到:03 03 02 01 11 00 18

[2022-06-17 15:36:54]发:03 03 00 06 00 01 65 E9

[2022-06-17 15:36:54]协议:9  收到:03 03 02 02 BC C1 55

[2022-06-17 15:36:57]发:03 03 00 15 00 01 94 2C

[2022-06-17 15:36:57]协议:9  收到:03 03 02 00 00 C1 84

[2022-06-17 15:37:02]程序运行磁盘剩余空间：235.7838 GB

[2022-06-17 15:38:27]串口:COM99打开故障

[2022-06-17 15:38:27]led屏串口打开失败！

[2022-06-17 15:38:29]小气候串口打开成功！

[2022-06-17 15:38:29]设备被启动！

[2022-06-17 15:38:29]与服务器连接成功！

[2022-06-17 15:38:30]串口:COM6打开故障

[2022-06-17 15:38:30]没有设备，请选择！

[2022-06-17 15:38:30]没有设备，请选择！

[2022-06-17 15:38:31]没有设备，请选择！

[2022-06-17 15:38:59]Socket事件_发送成功:{"devId":"okq20201106301","err":"","func":100,"message":"keep-alive"}

[2022-06-17 15:39:32]Socket事件_发送成功:{"devId":"okq20201106301","err":"","func":100,"message":"keep-alive"}

[2022-06-17 15:39:43]发:AA 00 64 01 A5

[2022-06-17 15:39:44]小气候数据读取指令连续5次发送未收到回复，指令为：AA 00 64 01 A5

[2022-06-17 15:39:44]发:AA 00 64 02 A5

[2022-06-17 15:39:45]小气候数据读取指令连续5次发送未收到回复，指令为：AA 00 64 02 A5

[2022-06-17 15:39:45]发:AA 00 64 03 A5

[2022-06-17 15:39:46]小气候数据读取指令连续5次发送未收到回复，指令为：AA 00 64 03 A5

[2022-06-17 15:39:46]发:AA 00 64 04 A5

[2022-06-17 15:39:48]小气候数据读取指令连续5次发送未收到回复，指令为：AA 00 64 04 A5

[2022-06-17 15:39:48]发:AA 00 64 05 A5

[2022-06-17 15:39:49]小气候数据读取指令连续5次发送未收到回复，指令为：AA 00 64 05 A5

[2022-06-17 15:39:49]发:AA 00 64 06 A5

[2022-06-17 15:39:50]小气候数据读取指令连续5次发送未收到回复，指令为：AA 00 64 06 A5

[2022-06-17 15:39:50]发:AA 00 64 07 A5

[2022-06-17 15:39:51]小气候数据读取指令连续5次发送未收到回复，指令为：AA 00 64 07 A5

[2022-06-17 15:39:51]发:AA 00 64 08 A5

[2022-06-17 15:39:53]小气候数据读取指令连续5次发送未收到回复，指令为：AA 00 64 08 A5

[2022-06-17 15:39:53]发:AA 00 64 0A A5

[2022-06-17 15:39:54]小气候数据读取指令连续5次发送未收到回复，指令为：AA 00 64 0A A5

[2022-06-17 15:39:54]发:AA 00 64 0B A5

[2022-06-17 15:39:55]小气候数据读取指令连续5次发送未收到回复，指令为：AA 00 64 0B A5

[2022-06-17 15:39:55]发:AA 00 64 0C A5

[2022-06-17 15:39:57]小气候数据读取指令连续5次发送未收到回复，指令为：AA 00 64 0C A5

[2022-06-17 15:39:57]发:AA 00 64 0D A5

[2022-06-17 15:39:58]小气候数据读取指令连续5次发送未收到回复，指令为：AA 00 64 0D A5

[2022-06-17 15:39:58]发:AA 00 64 0E A5

[2022-06-17 15:39:59]小气候数据读取指令连续5次发送未收到回复，指令为：AA 00 64 0E A5

[2022-06-17 15:39:59]发:AA 00 64 0F A5

[2022-06-17 15:40:00]小气候数据读取指令连续5次发送未收到回复，指令为：AA 00 64 0F A5

[2022-06-17 15:40:00]发:AA 00 64 31 A5

[2022-06-17 15:40:02]小气候数据读取指令连续5次发送未收到回复，指令为：AA 00 64 31 A5

[2022-06-17 15:40:02]发:09 03 00 00 00 01 85 42

[2022-06-17 15:40:02]Socket事件_发送成功:{"devId":"okq20201106301","err":"","func":100,"message":"keep-alive"}

[2022-06-17 15:40:03]小气候数据读取指令连续5次发送未收到回复，指令为：09 03 00 00 00 01 85 42

[2022-06-17 15:40:03]发:15 03 00 00 00 01 87 1E

[2022-06-17 15:40:04]小气候数据读取指令连续5次发送未收到回复，指令为：15 03 00 00 00 01 87 1E

[2022-06-17 15:40:04]发:1D 03 00 00 00 01 86 56

[2022-06-17 15:40:05]小气候数据读取指令连续5次发送未收到回复，指令为：1D 03 00 00 00 01 86 56

[2022-06-17 15:40:05]发:20 03 00 00 00 01 82 BB

[2022-06-17 15:40:07]小气候数据读取指令连续5次发送未收到回复，指令为：20 03 00 00 00 01 82 BB

[2022-06-17 15:40:07]发:21 03 00 00 00 01 83 6A

[2022-06-17 15:40:08]小气候数据读取指令连续5次发送未收到回复，指令为：21 03 00 00 00 01 83 6A

[2022-06-17 15:40:08]发:1E 03 00 00 00 01 86 65

[2022-06-17 15:40:09]小气候数据读取指令连续5次发送未收到回复，指令为：1E 03 00 00 00 01 86 65

[2022-06-17 15:40:09]发:14 03 00 00 00 02 C6 CE

[2022-06-17 15:40:10]小气候数据读取指令连续5次发送未收到回复，指令为：14 03 00 00 00 02 C6 CE

[2022-06-17 15:40:10]发:10 03 00 00 00 02 C7 4A

[2022-06-17 15:40:12]小气候数据读取指令连续5次发送未收到回复，指令为：10 03 00 00 00 02 C7 4A

[2022-06-17 15:40:12]发:16 03 01 00 00 02 D0 C6

[2022-06-17 15:40:13]小气候数据读取指令连续5次发送未收到回复，指令为：16 03 01 00 00 02 D0 C6

[2022-06-17 15:40:13]发:17 03 00 2A 00 01 A7 34

[2022-06-17 15:40:14]小气候数据读取指令连续5次发送未收到回复，指令为：17 03 00 2A 00 01 A7 34

[2022-06-17 15:40:14]发:18 03 00 2A 00 01 A7 34

[2022-06-17 15:40:15]小气候数据读取指令连续5次发送未收到回复，指令为：18 03 00 2A 00 01 A7 34

[2022-06-17 15:40:15]发:06 03 00 00 00 01 85 BD

[2022-06-17 15:40:17]小气候数据读取指令连续5次发送未收到回复，指令为：06 03 00 00 00 01 85 BD

[2022-06-17 15:40:17]发:07 03 00 00 00 01 84 6C

[2022-06-17 15:40:18]小气候数据读取指令连续5次发送未收到回复，指令为：07 03 00 00 00 01 84 6C

[2022-06-17 15:40:18]发:0A 03 00 00 00 01 85 71

[2022-06-17 15:40:19]小气候数据读取指令连续5次发送未收到回复，指令为：0A 03 00 00 00 01 85 71

[2022-06-17 15:40:19]发:01 03 00 01 00 01 D5 CA

[2022-06-17 15:40:20]小气候数据读取指令连续5次发送未收到回复，指令为：01 03 00 01 00 01 D5 CA

[2022-06-17 15:40:20]发:01 03 00 02 00 01 25 CA

[2022-06-17 15:40:22]小气候数据读取指令连续5次发送未收到回复，指令为：01 03 00 02 00 01 25 CA

[2022-06-17 15:40:22]发:01 03 00 05 00 01 94 0B

[2022-06-17 15:40:23]小气候数据读取指令连续5次发送未收到回复，指令为：01 03 00 05 00 01 94 0B

[2022-06-17 15:40:23]发:01 03 00 04 00 02 85 CA

[2022-06-17 15:40:24]小气候数据读取指令连续5次发送未收到回复，指令为：01 03 00 04 00 02 85 CA

[2022-06-17 15:40:28]发:03 03 00 12 00 01 25 ED

[2022-06-17 15:40:28]协议:10  收到:03 03 02 00 00 C1 84

[2022-06-17 15:40:33]Socket事件_发送成功:{"devId":"okq20201106301","err":"","func":100,"message":"keep-alive"}

[2022-06-17 15:40:40]发:03 03 00 13 00 01 74 2D

[2022-06-17 15:40:40]协议:10  收到:03 03 02 01 11 00 18

[2022-06-17 15:40:41]发:03 03 00 06 00 01 65 E9

[2022-06-17 15:40:42]协议:10  收到:03 03 02 02 BC C1 55

[2022-06-17 15:40:43]发:03 03 00 15 00 01 94 2C

[2022-06-17 15:40:43]协议:10  收到:03 03 02 00 00 C1 84

[2022-06-17 15:40:43]程序运行磁盘剩余空间：235.7838 GB

[2022-06-17 15:40:43]区域1 标题：祥符区八里湾基地

[2022-06-17 15:40:43]区域2 内容：温度:27.3℃

[2022-06-17 15:40:43]区域3 内容：湿度:0%

[2022-06-17 15:40:43]区域4 内容：

[2022-06-17 15:40:43]区域5 内容：

[2022-06-17 15:40:44]Get token md5 Str：sendmsg={"cmd":{"delete":{"del_all":1}},"ids_dev":"1214120042","sno":1}&ts=1655451644&type=pkts_program&user=zzokq&key=b7d7e5c520bcdd47351bedc502a4b4b3

[2022-06-17 15:40:44]发送清屏指令：{"user":"zzokq","ts":"1655451644","sendmsg":"{\"cmd\":{\"delete\":{\"del_all\":1}},\"ids_dev\":\"1214120042\",\"sno\":1}","type":"pkts_program","token":"ACC0660F0DC6B1F16A2BA420827D0514"}

[2022-06-17 15:40:44]收到：{"sno":1352761838}

[2022-06-17 15:40:44]Get token md5 Str：sendmsg={"pkts_program":{"property_pro":{"width":80,"height":160},"list_region":[{"info_pos":{"x":0,"y":0,"w":160,"h":16},"list_item":[{"info_animate":{"model_continue":null,"speed":null},"type_item":"text","text":"祥符区八里湾基地"}]},{"info_pos":{"x":0,"y":16,"w":160,"h":16},"list_item":[{"info_animate":{"model_continue":null,"speed":null},"type_item":"text","text":"温度:27.3℃"}]},{"info_pos":{"x":0,"y":32,"w":160,"h":16},"list_item":[{"info_animate":{"model_continue":null,"speed":null},"type_item":"text","text":"湿度:0%"}]},{"info_pos":{"x":0,"y":48,"w":160,"h":16},"list_item":[{"info_animate":{"model_continue":null,"speed":null},"type_item":"text","text":""}]},{"info_pos":{"x":0,"y":64,"w":160,"h":16},"list_item":[{"info_animate":{"model_continue":null,"speed":null},"type_item":"text","text":""}]}],"id_pro":1},"ids_dev":"1214120042","sno":1}&ts=1655451644&type=pkts_program&user=zzokq&key=b7d7e5c520bcdd47351bedc502a4b4b3

[2022-06-17 15:40:44]发送展示数据指令：{"user":"zzokq","ts":"1655451644","sendmsg":"{\"pkts_program\":{\"property_pro\":{\"width\":80,\"height\":160},\"list_region\":[{\"info_pos\":{\"x\":0,\"y\":0,\"w\":160,\"h\":16},\"list_item\":[{\"info_animate\":{\"model_continue\":null,\"speed\":null},\"type_item\":\"text\",\"text\":\"祥符区八里湾基地\"}]},{\"info_pos\":{\"x\":0,\"y\":16,\"w\":160,\"h\":16},\"list_item\":[{\"info_animate\":{\"model_continue\":null,\"speed\":null},\"type_item\":\"text\",\"text\":\"温度:27.3℃\"}]},{\"info_pos\":{\"x\":0,\"y\":32,\"w\":160,\"h\":16},\"list_item\":[{\"info_animate\":{\"model_continue\":null,\"speed\":null},\"type_item\":\"text\",\"text\":\"湿度:0%\"}]},{\"info_pos\":{\"x\":0,\"y\":48,\"w\":160,\"h\":16},\"list_item\":[{\"info_animate\":{\"model_continue\":null,\"speed\":null},\"type_item\":\"text\",\"text\":\"\"}]},{\"info_pos\":{\"x\":0,\"y\":64,\"w\":160,\"h\":16},\"list_item\":[{\"info_animate\":{\"model_continue\":null,\"speed\":null},\"type_item\":\"text\",\"text\":\"\"}]}],\"id_pro\":1},\"ids_dev\":\"1214120042\",\"sno\":1}","type":"pkts_program","token":"3ECA0DC5A1B7D3BB5934358956ACD3DE"}

[2022-06-17 15:40:44]收到：{"sno":1352761842}

[2022-06-17 15:41:03]Socket事件_发送成功:{"devId":"okq20201106301","err":"","func":100,"message":"keep-alive"}

[2022-06-17 15:41:32]发:1E 03 00 00 00 01 86 65

[2022-06-17 15:41:33]Socket事件_发送成功:{"devId":"okq20201106301","err":"","func":100,"message":"keep-alive"}

[2022-06-17 15:41:34]小气候数据读取指令连续5次发送未收到回复，指令为：1E 03 00 00 00 01 86 65

[2022-06-17 15:41:34]发:03 03 00 12 00 01 25 ED

[2022-06-17 15:41:35]协议:10  收到:03 03 02 00 00 C1 84

[2022-06-17 15:41:35]发:03 03 00 13 00 01 74 2D

[2022-06-17 15:41:35]协议:10  收到:03 03 02 01 11 00 18

[2022-06-17 15:41:39]发:03 03 00 06 00 01 65 E9

[2022-06-17 15:41:40]协议:10  收到:03 03 02 02 BC C1 55

[2022-06-17 15:41:40]发:03 03 00 15 00 01 94 2C

[2022-06-17 15:41:40]协议:10  收到:03 03 02 00 00 C1 84

[2022-06-17 15:41:40]程序运行磁盘剩余空间：235.7838 GB

[2022-06-17 15:41:40]区域1 标题：祥符区八里湾基地

[2022-06-17 15:41:40]区域2 内容：温度:27.3℃

[2022-06-17 15:41:40]区域3 内容：湿度:0%

[2022-06-17 15:41:40]区域4 内容：

[2022-06-17 15:41:40]区域5 内容：

[2022-06-17 15:41:40]Get token md5 Str：sendmsg={"cmd":{"delete":{"del_all":1}},"ids_dev":"1214120042","sno":1}&ts=1655451700&type=pkts_program&user=zzokq&key=b7d7e5c520bcdd47351bedc502a4b4b3

[2022-06-17 15:41:40]发送清屏指令：{"user":"zzokq","ts":"1655451700","sendmsg":"{\"cmd\":{\"delete\":{\"del_all\":1}},\"ids_dev\":\"1214120042\",\"sno\":1}","type":"pkts_program","token":"1D76468A5348427837C523A7B5F454A4"}

[2022-06-17 15:41:40]收到：{"sno":1352762848}

[2022-06-17 15:41:40]Get token md5 Str：sendmsg={"pkts_program":{"property_pro":{"width":80,"height":160},"list_region":[{"info_pos":{"x":0,"y":0,"w":160,"h":16},"list_item":[{"info_animate":{"model_continue":null,"speed":null},"type_item":"text","text":"祥符区八里湾基地"}]},{"info_pos":{"x":0,"y":16,"w":160,"h":16},"list_item":[{"info_animate":{"model_continue":null,"speed":null},"type_item":"text","text":"温度:27.3℃"}]},{"info_pos":{"x":0,"y":32,"w":160,"h":16},"list_item":[{"info_animate":{"model_continue":null,"speed":null},"type_item":"text","text":"湿度:0%"}]},{"info_pos":{"x":0,"y":48,"w":160,"h":16},"list_item":[{"info_animate":{"model_continue":null,"speed":null},"type_item":"text","text":""}]},{"info_pos":{"x":0,"y":64,"w":160,"h":16},"list_item":[{"info_animate":{"model_continue":null,"speed":null},"type_item":"text","text":""}]}],"id_pro":1},"ids_dev":"1214120042","sno":1}&ts=1655451701&type=pkts_program&user=zzokq&key=b7d7e5c520bcdd47351bedc502a4b4b3

[2022-06-17 15:41:40]发送展示数据指令：{"user":"zzokq","ts":"1655451700","sendmsg":"{\"pkts_program\":{\"property_pro\":{\"width\":80,\"height\":160},\"list_region\":[{\"info_pos\":{\"x\":0,\"y\":0,\"w\":160,\"h\":16},\"list_item\":[{\"info_animate\":{\"model_continue\":null,\"speed\":null},\"type_item\":\"text\",\"text\":\"祥符区八里湾基地\"}]},{\"info_pos\":{\"x\":0,\"y\":16,\"w\":160,\"h\":16},\"list_item\":[{\"info_animate\":{\"model_continue\":null,\"speed\":null},\"type_item\":\"text\",\"text\":\"温度:27.3℃\"}]},{\"info_pos\":{\"x\":0,\"y\":32,\"w\":160,\"h\":16},\"list_item\":[{\"info_animate\":{\"model_continue\":null,\"speed\":null},\"type_item\":\"text\",\"text\":\"湿度:0%\"}]},{\"info_pos\":{\"x\":0,\"y\":48,\"w\":160,\"h\":16},\"list_item\":[{\"info_animate\":{\"model_continue\":null,\"speed\":null},\"type_item\":\"text\",\"text\":\"\"}]},{\"info_pos\":{\"x\":0,\"y\":64,\"w\":160,\"h\":16},\"list_item\":[{\"info_animate\":{\"model_continue\":null,\"speed\":null},\"type_item\":\"text\",\"text\":\"\"}]}],\"id_pro\":1},\"ids_dev\":\"1214120042\",\"sno\":1}","type":"pkts_program","token":"1A12EEEAC2FDEE384964B289B281A03C"}

[2022-06-17 15:41:40]收到：{"err":"token_error"}

[2022-06-17 15:41:40]发送展示数据指令返回token错误!

[2022-06-17 15:41:40]Get token md5 Str：sendmsg={"cmd":{"delete":{"del_all":1}},"ids_dev":"1214120042","sno":1}&ts=1655451701&type=pkts_program&user=zzokq&key=b7d7e5c520bcdd47351bedc502a4b4b3

[2022-06-17 15:41:40]发送清屏指令：{"user":"zzokq","ts":"1655451701","sendmsg":"{\"cmd\":{\"delete\":{\"del_all\":1}},\"ids_dev\":\"1214120042\",\"sno\":1}","type":"pkts_program","token":"B019CB9D5E8C7E0F4BD02466D60BEF3C"}

[2022-06-17 15:41:40]收到：{"sno":1352762850}

[2022-06-17 15:41:40]Get token md5 Str：sendmsg={"pkts_program":{"property_pro":{"width":80,"height":160},"list_region":[{"info_pos":{"x":0,"y":0,"w":160,"h":16},"list_item":[{"info_animate":{"model_continue":null,"speed":null},"type_item":"text","text":"祥符区八里湾基地"}]},{"info_pos":{"x":0,"y":16,"w":160,"h":16},"list_item":[{"info_animate":{"model_continue":null,"speed":null},"type_item":"text","text":"温度:27.3℃"}]},{"info_pos":{"x":0,"y":32,"w":160,"h":16},"list_item":[{"info_animate":{"model_continue":null,"speed":null},"type_item":"text","text":"湿度:0%"}]},{"info_pos":{"x":0,"y":48,"w":160,"h":16},"list_item":[{"info_animate":{"model_continue":null,"speed":null},"type_item":"text","text":""}]},{"info_pos":{"x":0,"y":64,"w":160,"h":16},"list_item":[{"info_animate":{"model_continue":null,"speed":null},"type_item":"text","text":""}]}],"id_pro":1},"ids_dev":"1214120042","sno":1}&ts=1655451701&type=pkts_program&user=zzokq&key=b7d7e5c520bcdd47351bedc502a4b4b3

[2022-06-17 15:41:40]发送展示数据指令：{"user":"zzokq","ts":"1655451701","sendmsg":"{\"pkts_program\":{\"property_pro\":{\"width\":80,\"height\":160},\"list_region\":[{\"info_pos\":{\"x\":0,\"y\":0,\"w\":160,\"h\":16},\"list_item\":[{\"info_animate\":{\"model_continue\":null,\"speed\":null},\"type_item\":\"text\",\"text\":\"祥符区八里湾基地\"}]},{\"info_pos\":{\"x\":0,\"y\":16,\"w\":160,\"h\":16},\"list_item\":[{\"info_animate\":{\"model_continue\":null,\"speed\":null},\"type_item\":\"text\",\"text\":\"温度:27.3℃\"}]},{\"info_pos\":{\"x\":0,\"y\":32,\"w\":160,\"h\":16},\"list_item\":[{\"info_animate\":{\"model_continue\":null,\"speed\":null},\"type_item\":\"text\",\"text\":\"湿度:0%\"}]},{\"info_pos\":{\"x\":0,\"y\":48,\"w\":160,\"h\":16},\"list_item\":[{\"info_animate\":{\"model_continue\":null,\"speed\":null},\"type_item\":\"text\",\"text\":\"\"}]},{\"info_pos\":{\"x\":0,\"y\":64,\"w\":160,\"h\":16},\"list_item\":[{\"info_animate\":{\"model_continue\":null,\"speed\":null},\"type_item\":\"text\",\"text\":\"\"}]}],\"id_pro\":1},\"ids_dev\":\"1214120042\",\"sno\":1}","type":"pkts_program","token":"1A12EEEAC2FDEE384964B289B281A03C"}

[2022-06-17 15:41:40]收到：{"sno":1352762852}

[2022-06-17 15:42:03]Socket事件_发送成功:{"devId":"okq20201106301","err":"","func":100,"message":"keep-alive"}

[2022-06-17 15:42:29]发:1E 03 00 00 00 01 86 65

[2022-06-17 15:42:31]小气候数据读取指令连续5次发送未收到回复，指令为：1E 03 00 00 00 01 86 65

[2022-06-17 15:42:31]发:03 03 00 12 00 01 25 ED

[2022-06-17 15:42:31]协议:10  收到:03 03 02 00 00 C1 84

[2022-06-17 15:42:31]发:03 03 00 13 00 01 74 2D

[2022-06-17 15:42:31]协议:10  收到:03 03 02 01 11 00 18

[2022-06-17 15:42:31]发:03 03 00 06 00 01 65 E9

[2022-06-17 15:42:31]协议:10  收到:03 03 02 02 BC C1 55

[2022-06-17 15:42:31]发:03 03 00 15 00 01 94 2C

[2022-06-17 15:42:32]协议:10  收到:03 03 02 00 00 C1 84

[2022-06-17 15:42:43]程序运行磁盘剩余空间：235.7838 GB

[2022-06-17 15:42:44]Socket事件_发送成功:{"devId":"okq20201106301","err":"","func":100,"message":"keep-alive"}

[2022-06-17 15:42:46]区域1 标题：祥符区八里湾基地

[2022-06-17 15:42:46]区域2 内容：温度:27.3℃

[2022-06-17 15:42:46]区域3 内容：湿度:0%

[2022-06-17 15:42:46]区域4 内容：

[2022-06-17 15:42:46]区域5 内容：

[2022-06-17 15:42:46]Get token md5 Str：sendmsg={"cmd":{"delete":{"del_all":1}},"ids_dev":"1214120042","sno":1}&ts=1655451767&type=pkts_program&user=zzokq&key=b7d7e5c520bcdd47351bedc502a4b4b3

[2022-06-17 15:42:46]发送清屏指令：{"user":"zzokq","ts":"1655451767","sendmsg":"{\"cmd\":{\"delete\":{\"del_all\":1}},\"ids_dev\":\"1214120042\",\"sno\":1}","type":"pkts_program","token":"906E7F8239F3FD7C8E4321102962DD2D"}

[2022-06-17 15:42:46]收到：{"sno":1352764072}

[2022-06-17 15:42:46]Get token md5 Str：sendmsg={"pkts_program":{"property_pro":{"width":80,"height":160},"list_region":[{"info_pos":{"x":0,"y":0,"w":160,"h":16},"list_item":[{"info_animate":{"model_continue":null,"speed":null},"type_item":"text","text":"祥符区八里湾基地"}]},{"info_pos":{"x":0,"y":16,"w":160,"h":16},"list_item":[{"info_animate":{"model_continue":null,"speed":null},"type_item":"text","text":"温度:27.3℃"}]},{"info_pos":{"x":0,"y":32,"w":160,"h":16},"list_item":[{"info_animate":{"model_continue":null,"speed":null},"type_item":"text","text":"湿度:0%"}]},{"info_pos":{"x":0,"y":48,"w":160,"h":16},"list_item":[{"info_animate":{"model_continue":null,"speed":null},"type_item":"text","text":""}]},{"info_pos":{"x":0,"y":64,"w":160,"h":16},"list_item":[{"info_animate":{"model_continue":null,"speed":null},"type_item":"text","text":""}]}],"id_pro":1},"ids_dev":"1214120042","sno":1}&ts=1655451767&type=pkts_program&user=zzokq&key=b7d7e5c520bcdd47351bedc502a4b4b3

[2022-06-17 15:42:46]发送展示数据指令：{"user":"zzokq","ts":"1655451767","sendmsg":"{\"pkts_program\":{\"property_pro\":{\"width\":80,\"height\":160},\"list_region\":[{\"info_pos\":{\"x\":0,\"y\":0,\"w\":160,\"h\":16},\"list_item\":[{\"info_animate\":{\"model_continue\":null,\"speed\":null},\"type_item\":\"text\",\"text\":\"祥符区八里湾基地\"}]},{\"info_pos\":{\"x\":0,\"y\":16,\"w\":160,\"h\":16},\"list_item\":[{\"info_animate\":{\"model_continue\":null,\"speed\":null},\"type_item\":\"text\",\"text\":\"温度:27.3℃\"}]},{\"info_pos\":{\"x\":0,\"y\":32,\"w\":160,\"h\":16},\"list_item\":[{\"info_animate\":{\"model_continue\":null,\"speed\":null},\"type_item\":\"text\",\"text\":\"湿度:0%\"}]},{\"info_pos\":{\"x\":0,\"y\":48,\"w\":160,\"h\":16},\"list_item\":[{\"info_animate\":{\"model_continue\":null,\"speed\":null},\"type_item\":\"text\",\"text\":\"\"}]},{\"info_pos\":{\"x\":0,\"y\":64,\"w\":160,\"h\":16},\"list_item\":[{\"info_animate\":{\"model_continue\":null,\"speed\":null},\"type_item\":\"text\",\"text\":\"\"}]}],\"id_pro\":1},\"ids_dev\":\"1214120042\",\"sno\":1}","type":"pkts_program","token":"5A553BAC4BED29CD425725E1622F850F"}

[2022-06-17 15:42:46]收到：{"sno":1352764076}

[2022-06-17 15:44:58]串口:COM99打开故障

[2022-06-17 15:44:58]led屏串口打开失败！

[2022-06-17 15:45:00]小气候串口打开成功！

[2022-06-17 15:45:00]设备被启动！

[2022-06-17 15:45:00]与服务器连接成功！

[2022-06-17 15:45:01]串口:COM6打开故障

[2022-06-17 15:45:01]没有设备，请选择！

[2022-06-17 15:45:01]没有设备，请选择！

[2022-06-17 15:45:01]没有设备，请选择！

[2022-06-17 15:51:25]串口:COM99打开故障

[2022-06-17 15:51:25]led屏串口打开失败！

[2022-06-17 15:51:27]小气候串口打开成功！

[2022-06-17 15:51:27]设备被启动！

[2022-06-17 15:51:27]与服务器连接成功！

[2022-06-17 15:51:28]串口:COM6打开故障

[2022-06-17 15:51:28]没有设备，请选择！

[2022-06-17 15:51:29]没有设备，请选择！

[2022-06-17 15:51:29]没有设备，请选择！

[2022-06-17 15:51:57]Socket事件_发送成功:{"devId":"okq20201106301","err":"","func":100,"message":"keep-alive"}

[2022-06-17 15:52:27]发:AA 00 64 01 A5

[2022-06-17 15:52:27]Socket事件_发送成功:{"devId":"okq20201106301","err":"","func":100,"message":"keep-alive"}

[2022-06-17 15:52:28]小气候数据读取指令连续5次发送未收到回复，指令为：AA 00 64 01 A5

[2022-06-17 15:52:28]发:AA 00 64 02 A5

[2022-06-17 15:52:30]小气候数据读取指令连续5次发送未收到回复，指令为：AA 00 64 02 A5

[2022-06-17 15:52:30]发:AA 00 64 03 A5

[2022-06-17 15:52:31]小气候数据读取指令连续5次发送未收到回复，指令为：AA 00 64 03 A5

[2022-06-17 15:52:31]发:AA 00 64 04 A5

[2022-06-17 15:52:32]小气候数据读取指令连续5次发送未收到回复，指令为：AA 00 64 04 A5

[2022-06-17 15:52:32]发:AA 00 64 05 A5

[2022-06-17 15:52:34]小气候数据读取指令连续5次发送未收到回复，指令为：AA 00 64 05 A5

[2022-06-17 15:52:34]发:AA 00 64 06 A5

[2022-06-17 15:52:35]小气候数据读取指令连续5次发送未收到回复，指令为：AA 00 64 06 A5

[2022-06-17 15:52:35]发:AA 00 64 07 A5

[2022-06-17 15:52:36]小气候数据读取指令连续5次发送未收到回复，指令为：AA 00 64 07 A5

[2022-06-17 15:52:36]发:AA 00 64 08 A5

[2022-06-17 15:52:37]小气候数据读取指令连续5次发送未收到回复，指令为：AA 00 64 08 A5

[2022-06-17 15:52:37]发:AA 00 64 0A A5

[2022-06-17 15:52:39]小气候数据读取指令连续5次发送未收到回复，指令为：AA 00 64 0A A5

[2022-06-17 15:52:39]发:AA 00 64 0B A5

[2022-06-17 15:52:40]小气候数据读取指令连续5次发送未收到回复，指令为：AA 00 64 0B A5

[2022-06-17 15:52:40]发:AA 00 64 0C A5

[2022-06-17 15:52:41]小气候数据读取指令连续5次发送未收到回复，指令为：AA 00 64 0C A5

[2022-06-17 15:52:41]发:AA 00 64 0D A5

[2022-06-17 15:52:42]小气候数据读取指令连续5次发送未收到回复，指令为：AA 00 64 0D A5

[2022-06-17 15:52:42]发:AA 00 64 0E A5

[2022-06-17 15:52:44]小气候数据读取指令连续5次发送未收到回复，指令为：AA 00 64 0E A5

[2022-06-17 15:52:44]发:AA 00 64 0F A5

[2022-06-17 15:52:45]小气候数据读取指令连续5次发送未收到回复，指令为：AA 00 64 0F A5

[2022-06-17 15:52:45]发:AA 00 64 31 A5

[2022-06-17 15:52:46]小气候数据读取指令连续5次发送未收到回复，指令为：AA 00 64 31 A5

[2022-06-17 15:52:46]发:09 03 00 00 00 01 85 42

[2022-06-17 15:52:47]小气候数据读取指令连续5次发送未收到回复，指令为：09 03 00 00 00 01 85 42

[2022-06-17 15:52:47]发:15 03 00 00 00 01 87 1E

[2022-06-17 15:52:49]小气候数据读取指令连续5次发送未收到回复，指令为：15 03 00 00 00 01 87 1E

[2022-06-17 15:52:49]发:1D 03 00 00 00 01 86 56

[2022-06-17 15:52:50]小气候数据读取指令连续5次发送未收到回复，指令为：1D 03 00 00 00 01 86 56

[2022-06-17 15:52:50]发:20 03 00 00 00 01 82 BB

[2022-06-17 15:52:51]小气候数据读取指令连续5次发送未收到回复，指令为：20 03 00 00 00 01 82 BB

[2022-06-17 15:52:51]发:21 03 00 00 00 01 83 6A

[2022-06-17 15:52:52]小气候数据读取指令连续5次发送未收到回复，指令为：21 03 00 00 00 01 83 6A

[2022-06-17 15:52:52]发:1E 03 00 00 00 01 86 65

[2022-06-17 15:52:54]小气候数据读取指令连续5次发送未收到回复，指令为：1E 03 00 00 00 01 86 65

[2022-06-17 15:52:54]发:14 03 00 00 00 02 C6 CE

[2022-06-17 15:52:55]小气候数据读取指令连续5次发送未收到回复，指令为：14 03 00 00 00 02 C6 CE

[2022-06-17 15:52:55]发:10 03 00 00 00 02 C7 4A

[2022-06-17 15:52:56]小气候数据读取指令连续5次发送未收到回复，指令为：10 03 00 00 00 02 C7 4A

[2022-06-17 15:52:56]发:16 03 01 00 00 02 D0 C6

[2022-06-17 15:52:57]Socket事件_发送成功:{"devId":"okq20201106301","err":"","func":100,"message":"keep-alive"}

[2022-06-17 15:52:57]小气候数据读取指令连续5次发送未收到回复，指令为：16 03 01 00 00 02 D0 C6

[2022-06-17 15:52:58]发:17 03 00 2A 00 01 A7 34

[2022-06-17 15:52:59]小气候数据读取指令连续5次发送未收到回复，指令为：17 03 00 2A 00 01 A7 34

[2022-06-17 15:52:59]发:18 03 00 2A 00 01 A7 34

[2022-06-17 15:53:00]小气候数据读取指令连续5次发送未收到回复，指令为：18 03 00 2A 00 01 A7 34

[2022-06-17 15:53:00]发:06 03 00 00 00 01 85 BD

[2022-06-17 15:53:01]小气候数据读取指令连续5次发送未收到回复，指令为：06 03 00 00 00 01 85 BD

[2022-06-17 15:53:01]发:07 03 00 00 00 01 84 6C

[2022-06-17 15:53:03]小气候数据读取指令连续5次发送未收到回复，指令为：07 03 00 00 00 01 84 6C

[2022-06-17 15:53:03]发:0A 03 00 00 00 01 85 71

[2022-06-17 15:53:04]小气候数据读取指令连续5次发送未收到回复，指令为：0A 03 00 00 00 01 85 71

[2022-06-17 15:53:04]发:01 03 00 01 00 01 D5 CA

[2022-06-17 15:53:05]小气候数据读取指令连续5次发送未收到回复，指令为：01 03 00 01 00 01 D5 CA

[2022-06-17 15:53:05]发:01 03 00 02 00 01 25 CA

[2022-06-17 15:53:06]小气候数据读取指令连续5次发送未收到回复，指令为：01 03 00 02 00 01 25 CA

[2022-06-17 15:53:06]发:01 03 00 05 00 01 94 0B

[2022-06-17 15:53:08]小气候数据读取指令连续5次发送未收到回复，指令为：01 03 00 05 00 01 94 0B

[2022-06-17 15:53:08]发:01 03 00 04 00 02 85 CA

[2022-06-17 15:53:09]小气候数据读取指令连续5次发送未收到回复，指令为：01 03 00 04 00 02 85 CA

[2022-06-17 15:53:09]发:03 03 00 12 00 01 25 ED

[2022-06-17 15:53:09]协议:10  收到:03 03 02 00 86 40 26

[2022-06-17 15:53:09]发:03 03 00 13 00 01 74 2D

[2022-06-17 15:53:09]协议:10  收到:03 03 02 01 0D 01 D1

[2022-06-17 15:53:09]发:03 03 00 06 00 01 65 E9

[2022-06-17 15:53:10]协议:10  收到:03 03 02 02 77 80 C2

[2022-06-17 15:53:10]发:03 03 00 15 00 01 94 2C

[2022-06-17 15:53:10]协议:10  收到:03 03 02 02 C5 00 B7

[2022-06-17 15:53:13]程序运行磁盘剩余空间：235.7838 GB

[2022-06-17 15:53:13]区域1 标题：祥符区八里湾基地

[2022-06-17 15:53:13]区域2 内容：

[2022-06-17 15:53:13]区域3 内容：

[2022-06-17 15:53:13]区域4 内容：

[2022-06-17 15:53:13]区域5 内容：

[2022-06-17 15:53:14]Get token md5 Str：sendmsg={"cmd":{"delete":{"del_all":1}},"ids_dev":"1214120042","sno":1}&ts=1655452394&type=pkts_program&user=zzokq&key=b7d7e5c520bcdd47351bedc502a4b4b3

[2022-06-17 15:53:14]发送清屏指令：{"user":"zzokq","ts":"1655452394","sendmsg":"{\"cmd\":{\"delete\":{\"del_all\":1}},\"ids_dev\":\"1214120042\",\"sno\":1}","type":"pkts_program","token":"149AB3D182B5FD8026AAF68DED9740B7"}

[2022-06-17 15:53:14]收到：{"sno":1352776264}

[2022-06-17 15:53:14]Get token md5 Str：sendmsg={"pkts_program":{"property_pro":{"width":80,"height":160},"list_region":[{"info_pos":{"x":0,"y":0,"w":160,"h":16},"list_item":[{"info_animate":{"model_continue":null,"speed":null},"type_item":"text","text":"祥符区八里湾基地"}]},{"info_pos":{"x":0,"y":16,"w":160,"h":16},"list_item":[{"info_animate":{"model_continue":null,"speed":null},"type_item":"text","text":""}]},{"info_pos":{"x":0,"y":32,"w":160,"h":16},"list_item":[{"info_animate":{"model_continue":null,"speed":null},"type_item":"text","text":""}]},{"info_pos":{"x":0,"y":48,"w":160,"h":16},"list_item":[{"info_animate":{"model_continue":null,"speed":null},"type_item":"text","text":""}]},{"info_pos":{"x":0,"y":64,"w":160,"h":16},"list_item":[{"info_animate":{"model_continue":null,"speed":null},"type_item":"text","text":""}]}],"id_pro":1},"ids_dev":"1214120042","sno":1}&ts=1655452394&type=pkts_program&user=zzokq&key=b7d7e5c520bcdd47351bedc502a4b4b3

[2022-06-17 15:53:14]发送展示数据指令：{"user":"zzokq","ts":"1655452394","sendmsg":"{\"pkts_program\":{\"property_pro\":{\"width\":80,\"height\":160},\"list_region\":[{\"info_pos\":{\"x\":0,\"y\":0,\"w\":160,\"h\":16},\"list_item\":[{\"info_animate\":{\"model_continue\":null,\"speed\":null},\"type_item\":\"text\",\"text\":\"祥符区八里湾基地\"}]},{\"info_pos\":{\"x\":0,\"y\":16,\"w\":160,\"h\":16},\"list_item\":[{\"info_animate\":{\"model_continue\":null,\"speed\":null},\"type_item\":\"text\",\"text\":\"\"}]},{\"info_pos\":{\"x\":0,\"y\":32,\"w\":160,\"h\":16},\"list_item\":[{\"info_animate\":{\"model_continue\":null,\"speed\":null},\"type_item\":\"text\",\"text\":\"\"}]},{\"info_pos\":{\"x\":0,\"y\":48,\"w\":160,\"h\":16},\"list_item\":[{\"info_animate\":{\"model_continue\":null,\"speed\":null},\"type_item\":\"text\",\"text\":\"\"}]},{\"info_pos\":{\"x\":0,\"y\":64,\"w\":160,\"h\":16},\"list_item\":[{\"info_animate\":{\"model_continue\":null,\"speed\":null},\"type_item\":\"text\",\"text\":\"\"}]}],\"id_pro\":1},\"ids_dev\":\"1214120042\",\"sno\":1}","type":"pkts_program","token":"96D937CFA5A49DCF4D884F60DA930526"}

[2022-06-17 15:53:14]收到：{"sno":1352776272}

[2022-06-17 15:53:27]发:1E 03 00 00 00 01 86 65

[2022-06-17 15:53:27]Socket事件_发送成功:{"devId":"okq20201106301","err":"","func":100,"message":"keep-alive"}

[2022-06-17 15:53:28]小气候数据读取指令连续5次发送未收到回复，指令为：1E 03 00 00 00 01 86 65

[2022-06-17 15:53:28]发:03 03 00 12 00 01 25 ED

[2022-06-17 15:53:29]协议:10  收到:03 03 02 00 87 81 E6

[2022-06-17 15:53:29]发:03 03 00 13 00 01 74 2D

[2022-06-17 15:53:29]协议:10  收到:03 03 02 01 0D 01 D1

[2022-06-17 15:53:29]发:03 03 00 06 00 01 65 E9

[2022-06-17 15:53:29]协议:10  收到:03 03 02 02 72 40 C1

[2022-06-17 15:53:29]发:03 03 00 15 00 01 94 2C

[2022-06-17 15:53:30]协议:10  收到:03 03 02 02 59 00 DE

[2022-06-17 15:53:30]程序运行磁盘剩余空间：235.7838 GB

[2022-06-17 15:53:30]区域1 标题：祥符区八里湾基地

[2022-06-17 15:53:30]区域2 内容：

[2022-06-17 15:53:30]区域3 内容：

[2022-06-17 15:53:30]区域4 内容：

[2022-06-17 15:53:30]区域5 内容：

[2022-06-17 15:53:30]Get token md5 Str：sendmsg={"cmd":{"delete":{"del_all":1}},"ids_dev":"1214120042","sno":1}&ts=1655452410&type=pkts_program&user=zzokq&key=b7d7e5c520bcdd47351bedc502a4b4b3

[2022-06-17 15:53:30]发送清屏指令：{"user":"zzokq","ts":"1655452410","sendmsg":"{\"cmd\":{\"delete\":{\"del_all\":1}},\"ids_dev\":\"1214120042\",\"sno\":1}","type":"pkts_program","token":"35C627528250FD63F2A596BBBBFDB886"}

[2022-06-17 15:53:30]收到：{"sno":1352776400}

[2022-06-17 15:53:30]Get token md5 Str：sendmsg={"pkts_program":{"property_pro":{"width":80,"height":160},"list_region":[{"info_pos":{"x":0,"y":0,"w":160,"h":16},"list_item":[{"info_animate":{"model_continue":null,"speed":null},"type_item":"text","text":"祥符区八里湾基地"}]},{"info_pos":{"x":0,"y":16,"w":160,"h":16},"list_item":[{"info_animate":{"model_continue":null,"speed":null},"type_item":"text","text":""}]},{"info_pos":{"x":0,"y":32,"w":160,"h":16},"list_item":[{"info_animate":{"model_continue":null,"speed":null},"type_item":"text","text":""}]},{"info_pos":{"x":0,"y":48,"w":160,"h":16},"list_item":[{"info_animate":{"model_continue":null,"speed":null},"type_item":"text","text":""}]},{"info_pos":{"x":0,"y":64,"w":160,"h":16},"list_item":[{"info_animate":{"model_continue":null,"speed":null},"type_item":"text","text":""}]}],"id_pro":1},"ids_dev":"1214120042","sno":1}&ts=1655452410&type=pkts_program&user=zzokq&key=b7d7e5c520bcdd47351bedc502a4b4b3

[2022-06-17 15:53:30]发送展示数据指令：{"user":"zzokq","ts":"1655452410","sendmsg":"{\"pkts_program\":{\"property_pro\":{\"width\":80,\"height\":160},\"list_region\":[{\"info_pos\":{\"x\":0,\"y\":0,\"w\":160,\"h\":16},\"list_item\":[{\"info_animate\":{\"model_continue\":null,\"speed\":null},\"type_item\":\"text\",\"text\":\"祥符区八里湾基地\"}]},{\"info_pos\":{\"x\":0,\"y\":16,\"w\":160,\"h\":16},\"list_item\":[{\"info_animate\":{\"model_continue\":null,\"speed\":null},\"type_item\":\"text\",\"text\":\"\"}]},{\"info_pos\":{\"x\":0,\"y\":32,\"w\":160,\"h\":16},\"list_item\":[{\"info_animate\":{\"model_continue\":null,\"speed\":null},\"type_item\":\"text\",\"text\":\"\"}]},{\"info_pos\":{\"x\":0,\"y\":48,\"w\":160,\"h\":16},\"list_item\":[{\"info_animate\":{\"model_continue\":null,\"speed\":null},\"type_item\":\"text\",\"text\":\"\"}]},{\"info_pos\":{\"x\":0,\"y\":64,\"w\":160,\"h\":16},\"list_item\":[{\"info_animate\":{\"model_continue\":null,\"speed\":null},\"type_item\":\"text\",\"text\":\"\"}]}],\"id_pro\":1},\"ids_dev\":\"1214120042\",\"sno\":1}","type":"pkts_program","token":"F7198E143DB62264BD31670079275303"}

[2022-06-17 15:53:30]收到：{"sno":1352776402}

[2022-06-17 15:53:31]Socket事件_发送成功:{"func":101,"err":"","devId":"okq20201106301","devtype":1,"message":{"collectTime":"2022-06-17 14:28:40","environments":[{"name":"\u6E29\u5EA6","value":"-161.43"},{"name":"\u6E7F\u5EA6","value":"-161.43"},{"name":"\u5149\u7167\u5EA6","value":"1"},{"name":"\u5927\u6C14\u538B","value":"0.01"}]}}

[2022-06-17 15:53:33]Socket事件_发送成功:{"func":101,"err":"","devId":"okq20201106301","devtype":1,"message":{"collectTime":"2022-06-17 15:34:10","environments":[{"name":"\u5927\u6C14\u538B","value":"0"},{"name":"\u5927\u6C14\u538B","value":"2.69"},{"name":"\u5927\u6C14\u538B","value":"7"},{"name":"\u5927\u6C14\u538B","value":"0"}]}}

[2022-06-17 15:53:35]Socket事件_发送成功:{"func":101,"err":"","devId":"okq20201106301","devtype":1,"message":{"collectTime":"2022-06-17 15:36:13","environments":[{"name":"\u5927\u6C14\u538B","value":"0"},{"name":"\u5927\u6C14\u538B","value":"2.73"},{"name":"\u5927\u6C14\u538B","value":"7"},{"name":"\u5927\u6C14\u538B","value":"0"}]}}

[2022-06-17 15:53:37]Socket事件_发送成功:{"func":101,"err":"","devId":"okq20201106301","devtype":1,"message":{"collectTime":"2022-06-17 15:39:29","environments":[{"name":"\u6E7F\u5EA6","value":"0"},{"name":"\u6E29\u5EA6","value":"27.3"},{"name":"PH","value":"7"},{"name":"\u7535\u5BFC\u7387","value":"0"}]}}

[2022-06-17 15:53:39]Socket事件_发送成功:{"func":101,"err":"","devId":"okq20201106301","devtype":1,"message":{"collectTime":"2022-06-17 15:41:29","environments":[{"name":"\u6E7F\u5EA6","value":"0"},{"name":"\u6E29\u5EA6","value":"27.3"},{"name":"PH","value":"7"},{"name":"\u7535\u5BFC\u7387","value":"0"}]}}

[2022-06-17 15:53:41]Socket事件_发送成功:{"func":101,"err":"","devId":"okq20201106301","devtype":1,"message":{"collectTime":"2022-06-17 15:42:29","environments":[{"name":"\u6E7F\u5EA6","value":"0"},{"name":"\u6E29\u5EA6","value":"27.3"},{"name":"PH","value":"7"},{"name":"\u7535\u5BFC\u7387","value":"0"}]}}

[2022-06-17 15:53:43]Socket事件_发送成功:{"func":101,"err":"","devId":"okq20201106301","devtype":1,"message":{"collectTime":"2022-06-17 15:52:27","environments":[{"name":"\u571F\u58E4\u6E7F\u5EA6","value":"13.4"},{"name":"\u571F\u58E4\u6E29\u5EA6","value":"26.9"},{"name":"\u571F\u58E4PH","value":"6.31"},{"name":"\u571F\u58E4\u7535\u5BFC\u7387","value":"709"}]}}

[2022-06-17 15:53:45]Socket事件_发送成功:{"func":101,"err":"","devId":"okq20201106301","devtype":1,"message":{"collectTime":"2022-06-17 15:53:27","environments":[{"name":"\u571F\u58E4\u6E7F\u5EA6","value":"13.5"},{"name":"\u571F\u58E4\u6E29\u5EA6","value":"26.9"},{"name":"\u571F\u58E4PH","value":"6.26"},{"name":"\u571F\u58E4\u7535\u5BFC\u7387","value":"601"}]}}

[2022-06-17 15:53:57]Socket事件_发送成功:{"devId":"okq20201106301","err":"","func":100,"message":"keep-alive"}

[2022-06-17 15:58:05]串口:COM99打开故障

[2022-06-17 15:58:05]led屏串口打开失败！

[2022-06-17 15:58:07]小气候串口打开成功！

[2022-06-17 15:58:07]设备被启动！

[2022-06-17 15:58:07]与服务器连接成功！

[2022-06-17 15:58:08]串口:COM6打开故障

[2022-06-17 15:58:08]没有设备，请选择！

[2022-06-17 15:58:09]没有设备，请选择！

[2022-06-17 15:58:09]没有设备，请选择！

[2022-06-17 15:58:37]Socket事件_发送成功:{"devId":"okq20201106301","err":"","func":100,"message":"keep-alive"}

[2022-06-17 15:59:07]发:AA 00 64 01 A5

[2022-06-17 15:59:07]Socket事件_发送成功:{"devId":"okq20201106301","err":"","func":100,"message":"keep-alive"}

[2022-06-17 15:59:08]小气候数据读取指令连续5次发送未收到回复，指令为：AA 00 64 01 A5

[2022-06-17 15:59:08]发:AA 00 64 02 A5

[2022-06-17 15:59:10]小气候数据读取指令连续5次发送未收到回复，指令为：AA 00 64 02 A5

[2022-06-17 15:59:10]发:AA 00 64 03 A5

[2022-06-17 15:59:11]小气候数据读取指令连续5次发送未收到回复，指令为：AA 00 64 03 A5

[2022-06-17 15:59:11]发:AA 00 64 04 A5

[2022-06-17 15:59:12]小气候数据读取指令连续5次发送未收到回复，指令为：AA 00 64 04 A5

[2022-06-17 15:59:12]发:AA 00 64 05 A5

[2022-06-17 15:59:13]小气候数据读取指令连续5次发送未收到回复，指令为：AA 00 64 05 A5

[2022-06-17 15:59:13]发:AA 00 64 06 A5

[2022-06-17 15:59:15]小气候数据读取指令连续5次发送未收到回复，指令为：AA 00 64 06 A5

[2022-06-17 15:59:15]发:AA 00 64 07 A5

[2022-06-17 15:59:16]小气候数据读取指令连续5次发送未收到回复，指令为：AA 00 64 07 A5

[2022-06-17 15:59:16]发:AA 00 64 08 A5

[2022-06-17 15:59:17]小气候数据读取指令连续5次发送未收到回复，指令为：AA 00 64 08 A5

[2022-06-17 15:59:17]发:AA 00 64 0A A5

[2022-06-17 15:59:19]小气候数据读取指令连续5次发送未收到回复，指令为：AA 00 64 0A A5

[2022-06-17 15:59:19]发:AA 00 64 0B A5

[2022-06-17 15:59:20]小气候数据读取指令连续5次发送未收到回复，指令为：AA 00 64 0B A5

[2022-06-17 15:59:20]发:AA 00 64 0C A5

[2022-06-17 15:59:21]小气候数据读取指令连续5次发送未收到回复，指令为：AA 00 64 0C A5

[2022-06-17 15:59:21]发:AA 00 64 0D A5

[2022-06-17 15:59:22]小气候数据读取指令连续5次发送未收到回复，指令为：AA 00 64 0D A5

[2022-06-17 15:59:22]发:AA 00 64 0E A5

[2022-06-17 15:59:24]小气候数据读取指令连续5次发送未收到回复，指令为：AA 00 64 0E A5

[2022-06-17 15:59:24]发:AA 00 64 0F A5

[2022-06-17 15:59:25]小气候数据读取指令连续5次发送未收到回复，指令为：AA 00 64 0F A5

[2022-06-17 15:59:25]发:AA 00 64 31 A5

[2022-06-17 15:59:26]小气候数据读取指令连续5次发送未收到回复，指令为：AA 00 64 31 A5

[2022-06-17 15:59:26]发:09 03 00 00 00 01 85 42

[2022-06-17 15:59:27]小气候数据读取指令连续5次发送未收到回复，指令为：09 03 00 00 00 01 85 42

[2022-06-17 15:59:27]发:15 03 00 00 00 01 87 1E

[2022-06-17 15:59:29]小气候数据读取指令连续5次发送未收到回复，指令为：15 03 00 00 00 01 87 1E

[2022-06-17 15:59:29]发:1D 03 00 00 00 01 86 56

[2022-06-17 15:59:30]小气候数据读取指令连续5次发送未收到回复，指令为：1D 03 00 00 00 01 86 56

[2022-06-17 15:59:30]发:20 03 00 00 00 01 82 BB

[2022-06-17 15:59:31]小气候数据读取指令连续5次发送未收到回复，指令为：20 03 00 00 00 01 82 BB

[2022-06-17 15:59:31]发:21 03 00 00 00 01 83 6A

[2022-06-17 15:59:32]小气候数据读取指令连续5次发送未收到回复，指令为：21 03 00 00 00 01 83 6A

[2022-06-17 15:59:32]发:1E 03 00 00 00 01 86 65

[2022-06-17 15:59:34]小气候数据读取指令连续5次发送未收到回复，指令为：1E 03 00 00 00 01 86 65

[2022-06-17 15:59:34]发:14 03 00 00 00 02 C6 CE

[2022-06-17 15:59:35]小气候数据读取指令连续5次发送未收到回复，指令为：14 03 00 00 00 02 C6 CE

[2022-06-17 15:59:35]发:10 03 00 00 00 02 C7 4A

[2022-06-17 15:59:36]小气候数据读取指令连续5次发送未收到回复，指令为：10 03 00 00 00 02 C7 4A

[2022-06-17 15:59:36]发:16 03 01 00 00 02 D0 C6

[2022-06-17 15:59:37]Socket事件_发送成功:{"devId":"okq20201106301","err":"","func":100,"message":"keep-alive"}

[2022-06-17 15:59:37]小气候数据读取指令连续5次发送未收到回复，指令为：16 03 01 00 00 02 D0 C6

[2022-06-17 15:59:37]发:17 03 00 2A 00 01 A7 34

[2022-06-17 15:59:39]小气候数据读取指令连续5次发送未收到回复，指令为：17 03 00 2A 00 01 A7 34

[2022-06-17 15:59:39]发:18 03 00 2A 00 01 A7 34

[2022-06-17 15:59:40]小气候数据读取指令连续5次发送未收到回复，指令为：18 03 00 2A 00 01 A7 34

[2022-06-17 15:59:40]发:06 03 00 00 00 01 85 BD

[2022-06-17 15:59:41]小气候数据读取指令连续5次发送未收到回复，指令为：06 03 00 00 00 01 85 BD

[2022-06-17 15:59:41]发:07 03 00 00 00 01 84 6C

[2022-06-17 15:59:42]小气候数据读取指令连续5次发送未收到回复，指令为：07 03 00 00 00 01 84 6C

[2022-06-17 15:59:42]发:0A 03 00 00 00 01 85 71

[2022-06-17 15:59:44]小气候数据读取指令连续5次发送未收到回复，指令为：0A 03 00 00 00 01 85 71

[2022-06-17 15:59:44]发:01 03 00 01 00 01 D5 CA

[2022-06-17 15:59:45]小气候数据读取指令连续5次发送未收到回复，指令为：01 03 00 01 00 01 D5 CA

[2022-06-17 15:59:45]发:01 03 00 02 00 01 25 CA

[2022-06-17 15:59:46]小气候数据读取指令连续5次发送未收到回复，指令为：01 03 00 02 00 01 25 CA

[2022-06-17 15:59:46]发:01 03 00 05 00 01 94 0B

[2022-06-17 15:59:48]小气候数据读取指令连续5次发送未收到回复，指令为：01 03 00 05 00 01 94 0B

[2022-06-17 15:59:48]发:01 03 00 04 00 02 85 CA

[2022-06-17 15:59:49]小气候数据读取指令连续5次发送未收到回复，指令为：01 03 00 04 00 02 85 CA

[2022-06-17 15:59:49]发:03 03 00 12 00 01 25 ED

[2022-06-17 15:59:49]协议:10  收到:03 03 02 00 84 C1 E7

[2022-06-17 15:59:49]发:03 03 00 13 00 01 74 2D

[2022-06-17 15:59:49]协议:10  收到:03 03 02 01 09 00 12

[2022-06-17 15:59:49]发:03 03 00 06 00 01 65 E9

[2022-06-17 15:59:50]协议:10  收到:03 03 02 02 68 C1 0A

[2022-06-17 15:59:50]发:03 03 00 15 00 01 94 2C

[2022-06-17 15:59:50]协议:10  收到:03 03 02 02 59 00 DE

[2022-06-17 15:59:50]程序运行磁盘剩余空间：235.7838 GB

[2022-06-17 15:59:55]区域1 标题：祥符区八里湾基地

[2022-06-17 15:59:55]区域2 内容：

[2022-06-17 15:59:55]区域3 内容：

[2022-06-17 15:59:55]区域4 内容：

[2022-06-17 15:59:55]区域5 内容：

[2022-06-17 15:59:55]Get token md5 Str：sendmsg={"cmd":{"delete":{"del_all":1}},"ids_dev":"1214120042","sno":1}&ts=1655452796&type=pkts_program&user=zzokq&key=b7d7e5c520bcdd47351bedc502a4b4b3

[2022-06-17 15:59:55]发送清屏指令：{"user":"zzokq","ts":"1655452796","sendmsg":"{\"cmd\":{\"delete\":{\"del_all\":1}},\"ids_dev\":\"1214120042\",\"sno\":1}","type":"pkts_program","token":"6CD2194D9DE45C7AAA178593949C0960"}

[2022-06-17 15:59:55]收到：{"sno":1352783690}

[2022-06-17 15:59:55]Get token md5 Str：sendmsg={"pkts_program":{"property_pro":{"width":80,"height":160},"list_region":[{"info_pos":{"x":0,"y":0,"w":160,"h":16},"list_item":[{"info_animate":{"model_continue":null,"speed":null},"type_item":"text","text":"祥符区八里湾基地"}]},{"info_pos":{"x":0,"y":16,"w":160,"h":16},"list_item":[{"info_animate":{"model_continue":null,"speed":null},"type_item":"text","text":""}]},{"info_pos":{"x":0,"y":32,"w":160,"h":16},"list_item":[{"info_animate":{"model_continue":null,"speed":null},"type_item":"text","text":""}]},{"info_pos":{"x":0,"y":48,"w":160,"h":16},"list_item":[{"info_animate":{"model_continue":null,"speed":null},"type_item":"text","text":""}]},{"info_pos":{"x":0,"y":64,"w":160,"h":16},"list_item":[{"info_animate":{"model_continue":null,"speed":null},"type_item":"text","text":""}]}],"id_pro":1},"ids_dev":"1214120042","sno":1}&ts=1655452796&type=pkts_program&user=zzokq&key=b7d7e5c520bcdd47351bedc502a4b4b3

[2022-06-17 15:59:55]发送展示数据指令：{"user":"zzokq","ts":"1655452796","sendmsg":"{\"pkts_program\":{\"property_pro\":{\"width\":80,\"height\":160},\"list_region\":[{\"info_pos\":{\"x\":0,\"y\":0,\"w\":160,\"h\":16},\"list_item\":[{\"info_animate\":{\"model_continue\":null,\"speed\":null},\"type_item\":\"text\",\"text\":\"祥符区八里湾基地\"}]},{\"info_pos\":{\"x\":0,\"y\":16,\"w\":160,\"h\":16},\"list_item\":[{\"info_animate\":{\"model_continue\":null,\"speed\":null},\"type_item\":\"text\",\"text\":\"\"}]},{\"info_pos\":{\"x\":0,\"y\":32,\"w\":160,\"h\":16},\"list_item\":[{\"info_animate\":{\"model_continue\":null,\"speed\":null},\"type_item\":\"text\",\"text\":\"\"}]},{\"info_pos\":{\"x\":0,\"y\":48,\"w\":160,\"h\":16},\"list_item\":[{\"info_animate\":{\"model_continue\":null,\"speed\":null},\"type_item\":\"text\",\"text\":\"\"}]},{\"info_pos\":{\"x\":0,\"y\":64,\"w\":160,\"h\":16},\"list_item\":[{\"info_animate\":{\"model_continue\":null,\"speed\":null},\"type_item\":\"text\",\"text\":\"\"}]}],\"id_pro\":1},\"ids_dev\":\"1214120042\",\"sno\":1}","type":"pkts_program","token":"F9CC1D9352CBB6EF8BCB525B40C9082B"}

[2022-06-17 15:59:55]收到：{"sno":1352783692}

[2022-06-17 16:00:07]发:1E 03 00 00 00 01 86 65

[2022-06-17 16:00:07]Socket事件_发送成功:{"devId":"okq20201106301","err":"","func":100,"message":"keep-alive"}

[2022-06-17 16:00:08]小气候数据读取指令连续5次发送未收到回复，指令为：1E 03 00 00 00 01 86 65

[2022-06-17 16:00:08]发:03 03 00 12 00 01 25 ED

[2022-06-17 16:00:09]协议:10  收到:03 03 02 00 86 40 26

[2022-06-17 16:00:09]发:03 03 00 13 00 01 74 2D

[2022-06-17 16:00:09]协议:10  收到:03 03 02 01 09 00 12

[2022-06-17 16:00:09]发:03 03 00 06 00 01 65 E9

[2022-06-17 16:00:09]协议:10  收到:03 03 02 02 66 40 CE

[2022-06-17 16:00:09]发:03 03 00 15 00 01 94 2C

[2022-06-17 16:00:09]协议:10  收到:03 03 02 02 59 00 DE

[2022-06-17 16:00:09]程序运行磁盘剩余空间：235.7837 GB

[2022-06-17 16:03:23]串口:COM99打开故障

[2022-06-17 16:03:23]led屏串口打开失败！

[2022-06-17 16:03:25]小气候串口打开成功！

[2022-06-17 16:03:25]设备被启动！

[2022-06-17 16:03:25]与服务器连接成功！

[2022-06-17 16:03:26]串口:COM6打开故障

[2022-06-17 16:03:26]没有设备，请选择！

[2022-06-17 16:03:27]没有设备，请选择！

[2022-06-17 16:03:27]没有设备，请选择！

[2022-06-17 16:03:55]Socket事件_发送成功:{"devId":"okq20201106301","err":"","func":100,"message":"keep-alive"}

[2022-06-17 16:04:25]发:AA 00 64 01 A5

[2022-06-17 16:04:25]Socket事件_发送成功:{"devId":"okq20201106301","err":"","func":100,"message":"keep-alive"}

[2022-06-17 16:04:26]小气候数据读取指令连续5次发送未收到回复，指令为：AA 00 64 01 A5

[2022-06-17 16:04:26]发:AA 00 64 02 A5

[2022-06-17 16:04:28]小气候数据读取指令连续5次发送未收到回复，指令为：AA 00 64 02 A5

[2022-06-17 16:04:28]发:AA 00 64 03 A5

[2022-06-17 16:04:29]小气候数据读取指令连续5次发送未收到回复，指令为：AA 00 64 03 A5

[2022-06-17 16:04:29]发:AA 00 64 04 A5

[2022-06-17 16:04:30]小气候数据读取指令连续5次发送未收到回复，指令为：AA 00 64 04 A5

[2022-06-17 16:04:30]发:AA 00 64 05 A5

[2022-06-17 16:04:31]小气候数据读取指令连续5次发送未收到回复，指令为：AA 00 64 05 A5

[2022-06-17 16:04:31]发:AA 00 64 06 A5

[2022-06-17 16:04:33]小气候数据读取指令连续5次发送未收到回复，指令为：AA 00 64 06 A5

[2022-06-17 16:04:33]发:AA 00 64 07 A5

[2022-06-17 16:04:34]小气候数据读取指令连续5次发送未收到回复，指令为：AA 00 64 07 A5

[2022-06-17 16:04:34]发:AA 00 64 08 A5

[2022-06-17 16:04:35]小气候数据读取指令连续5次发送未收到回复，指令为：AA 00 64 08 A5

[2022-06-17 16:04:35]发:AA 00 64 0A A5

[2022-06-17 16:04:37]小气候数据读取指令连续5次发送未收到回复，指令为：AA 00 64 0A A5

[2022-06-17 16:04:37]发:AA 00 64 0B A5

[2022-06-17 16:04:38]小气候数据读取指令连续5次发送未收到回复，指令为：AA 00 64 0B A5

[2022-06-17 16:04:38]发:AA 00 64 0C A5

[2022-06-17 16:04:39]小气候数据读取指令连续5次发送未收到回复，指令为：AA 00 64 0C A5

[2022-06-17 16:04:39]发:AA 00 64 0D A5

[2022-06-17 16:04:40]小气候数据读取指令连续5次发送未收到回复，指令为：AA 00 64 0D A5

[2022-06-17 16:04:40]发:AA 00 64 0E A5

[2022-06-17 16:04:42]小气候数据读取指令连续5次发送未收到回复，指令为：AA 00 64 0E A5

[2022-06-17 16:04:42]发:AA 00 64 0F A5

[2022-06-17 16:04:43]小气候数据读取指令连续5次发送未收到回复，指令为：AA 00 64 0F A5

[2022-06-17 16:04:43]发:AA 00 64 31 A5

[2022-06-17 16:04:44]小气候数据读取指令连续5次发送未收到回复，指令为：AA 00 64 31 A5

[2022-06-17 16:04:44]发:09 03 00 00 00 01 85 42

[2022-06-17 16:04:45]小气候数据读取指令连续5次发送未收到回复，指令为：09 03 00 00 00 01 85 42

[2022-06-17 16:04:45]发:15 03 00 00 00 01 87 1E

[2022-06-17 16:04:47]小气候数据读取指令连续5次发送未收到回复，指令为：15 03 00 00 00 01 87 1E

[2022-06-17 16:04:47]发:1D 03 00 00 00 01 86 56

[2022-06-17 16:04:48]小气候数据读取指令连续5次发送未收到回复，指令为：1D 03 00 00 00 01 86 56

[2022-06-17 16:04:48]发:20 03 00 00 00 01 82 BB

[2022-06-17 16:04:49]小气候数据读取指令连续5次发送未收到回复，指令为：20 03 00 00 00 01 82 BB

[2022-06-17 16:04:49]发:21 03 00 00 00 01 83 6A

[2022-06-17 16:04:50]小气候数据读取指令连续5次发送未收到回复，指令为：21 03 00 00 00 01 83 6A

[2022-06-17 16:04:50]发:1E 03 00 00 00 01 86 65

[2022-06-17 16:04:52]小气候数据读取指令连续5次发送未收到回复，指令为：1E 03 00 00 00 01 86 65

[2022-06-17 16:04:52]发:14 03 00 00 00 02 C6 CE

[2022-06-17 16:04:53]小气候数据读取指令连续5次发送未收到回复，指令为：14 03 00 00 00 02 C6 CE

[2022-06-17 16:04:53]发:10 03 00 00 00 02 C7 4A

[2022-06-17 16:04:54]小气候数据读取指令连续5次发送未收到回复，指令为：10 03 00 00 00 02 C7 4A

[2022-06-17 16:04:54]发:16 03 01 00 00 02 D0 C6

[2022-06-17 16:04:55]Socket事件_发送成功:{"devId":"okq20201106301","err":"","func":100,"message":"keep-alive"}

[2022-06-17 16:04:55]小气候数据读取指令连续5次发送未收到回复，指令为：16 03 01 00 00 02 D0 C6

[2022-06-17 16:04:55]发:17 03 00 2A 00 01 A7 34

[2022-06-17 16:04:57]小气候数据读取指令连续5次发送未收到回复，指令为：17 03 00 2A 00 01 A7 34

[2022-06-17 16:04:57]发:18 03 00 2A 00 01 A7 34

[2022-06-17 16:04:58]小气候数据读取指令连续5次发送未收到回复，指令为：18 03 00 2A 00 01 A7 34

[2022-06-17 16:04:58]发:06 03 00 00 00 01 85 BD

[2022-06-17 16:04:59]小气候数据读取指令连续5次发送未收到回复，指令为：06 03 00 00 00 01 85 BD

[2022-06-17 16:04:59]发:07 03 00 00 00 01 84 6C

[2022-06-17 16:05:00]小气候数据读取指令连续5次发送未收到回复，指令为：07 03 00 00 00 01 84 6C

[2022-06-17 16:05:00]发:0A 03 00 00 00 01 85 71

[2022-06-17 16:05:02]小气候数据读取指令连续5次发送未收到回复，指令为：0A 03 00 00 00 01 85 71

[2022-06-17 16:05:02]发:01 03 00 01 00 01 D5 CA

[2022-06-17 16:05:03]小气候数据读取指令连续5次发送未收到回复，指令为：01 03 00 01 00 01 D5 CA

[2022-06-17 16:05:03]发:01 03 00 02 00 01 25 CA

[2022-06-17 16:05:04]小气候数据读取指令连续5次发送未收到回复，指令为：01 03 00 02 00 01 25 CA

[2022-06-17 16:05:04]发:01 03 00 05 00 01 94 0B

[2022-06-17 16:05:06]小气候数据读取指令连续5次发送未收到回复，指令为：01 03 00 05 00 01 94 0B

[2022-06-17 16:05:06]发:01 03 00 04 00 02 85 CA

[2022-06-17 16:05:07]小气候数据读取指令连续5次发送未收到回复，指令为：01 03 00 04 00 02 85 CA

[2022-06-17 16:05:07]发:03 03 00 12 00 01 25 ED

[2022-06-17 16:05:07]协议:10  收到:03 03 02 00 61 00 6C

[2022-06-17 16:05:07]发:03 03 00 13 00 01 74 2D

[2022-06-17 16:05:07]协议:10  收到:03 03 02 01 09 00 12

[2022-06-17 16:05:07]发:03 03 00 06 00 01 65 E9

[2022-06-17 16:05:08]协议:10  收到:03 03 02 02 69 00 CA

[2022-06-17 16:05:08]发:03 03 00 15 00 01 94 2C

[2022-06-17 16:05:08]协议:10  收到:03 03 02 02 4B 80 D3

[2022-06-17 16:05:08]程序运行磁盘剩余空间：235.7835 GB

[2022-06-17 16:05:10]区域1 标题：祥符区八里湾基地

[2022-06-17 16:05:10]区域2 内容：

[2022-06-17 16:05:10]区域3 内容：

[2022-06-17 16:05:11]区域4 内容：

[2022-06-17 16:05:11]区域5 内容：

[2022-06-17 16:05:11]Get token md5 Str：sendmsg={"cmd":{"delete":{"del_all":1}},"ids_dev":"1214120042","sno":1}&ts=1655453111&type=pkts_program&user=zzokq&key=b7d7e5c520bcdd47351bedc502a4b4b3

[2022-06-17 16:05:11]发送清屏指令：{"user":"zzokq","ts":"1655453111","sendmsg":"{\"cmd\":{\"delete\":{\"del_all\":1}},\"ids_dev\":\"1214120042\",\"sno\":1}","type":"pkts_program","token":"38ECC432A6A6654F9B278F5A3FEA90DE"}

[2022-06-17 16:05:11]收到：{"sno":1352790114}

[2022-06-17 16:05:11]Get token md5 Str：sendmsg={"pkts_program":{"property_pro":{"width":80,"height":160},"list_region":[{"info_pos":{"x":0,"y":0,"w":160,"h":16},"list_item":[{"info_animate":{"model_continue":null,"speed":null},"type_item":"text","text":"祥符区八里湾基地"}]},{"info_pos":{"x":0,"y":16,"w":160,"h":16},"list_item":[{"info_animate":{"model_continue":null,"speed":null},"type_item":"text","text":""}]},{"info_pos":{"x":0,"y":32,"w":160,"h":16},"list_item":[{"info_animate":{"model_continue":null,"speed":null},"type_item":"text","text":""}]},{"info_pos":{"x":0,"y":48,"w":160,"h":16},"list_item":[{"info_animate":{"model_continue":null,"speed":null},"type_item":"text","text":""}]},{"info_pos":{"x":0,"y":64,"w":160,"h":16},"list_item":[{"info_animate":{"model_continue":null,"speed":null},"type_item":"text","text":""}]}],"id_pro":1},"ids_dev":"1214120042","sno":1}&ts=1655453112&type=pkts_program&user=zzokq&key=b7d7e5c520bcdd47351bedc502a4b4b3

[2022-06-17 16:05:11]发送展示数据指令：{"user":"zzokq","ts":"1655453111","sendmsg":"{\"pkts_program\":{\"property_pro\":{\"width\":80,\"height\":160},\"list_region\":[{\"info_pos\":{\"x\":0,\"y\":0,\"w\":160,\"h\":16},\"list_item\":[{\"info_animate\":{\"model_continue\":null,\"speed\":null},\"type_item\":\"text\",\"text\":\"祥符区八里湾基地\"}]},{\"info_pos\":{\"x\":0,\"y\":16,\"w\":160,\"h\":16},\"list_item\":[{\"info_animate\":{\"model_continue\":null,\"speed\":null},\"type_item\":\"text\",\"text\":\"\"}]},{\"info_pos\":{\"x\":0,\"y\":32,\"w\":160,\"h\":16},\"list_item\":[{\"info_animate\":{\"model_continue\":null,\"speed\":null},\"type_item\":\"text\",\"text\":\"\"}]},{\"info_pos\":{\"x\":0,\"y\":48,\"w\":160,\"h\":16},\"list_item\":[{\"info_animate\":{\"model_continue\":null,\"speed\":null},\"type_item\":\"text\",\"text\":\"\"}]},{\"info_pos\":{\"x\":0,\"y\":64,\"w\":160,\"h\":16},\"list_item\":[{\"info_animate\":{\"model_continue\":null,\"speed\":null},\"type_item\":\"text\",\"text\":\"\"}]}],\"id_pro\":1},\"ids_dev\":\"1214120042\",\"sno\":1}","type":"pkts_program","token":"BC81EB8038F9E73D06BB512FDAD8F7F6"}

[2022-06-17 16:05:11]收到：{"err":"token_error"}

[2022-06-17 16:05:11]发送展示数据指令返回token错误!

[2022-06-17 16:05:11]Get token md5 Str：sendmsg={"cmd":{"delete":{"del_all":1}},"ids_dev":"1214120042","sno":1}&ts=1655453112&type=pkts_program&user=zzokq&key=b7d7e5c520bcdd47351bedc502a4b4b3

[2022-06-17 16:05:11]发送清屏指令：{"user":"zzokq","ts":"1655453112","sendmsg":"{\"cmd\":{\"delete\":{\"del_all\":1}},\"ids_dev\":\"1214120042\",\"sno\":1}","type":"pkts_program","token":"4B04535C74F1125F74A8BD47446F25E1"}

[2022-06-17 16:05:11]收到：{"sno":1352790118}

[2022-06-17 16:05:11]Get token md5 Str：sendmsg={"pkts_program":{"property_pro":{"width":80,"height":160},"list_region":[{"info_pos":{"x":0,"y":0,"w":160,"h":16},"list_item":[{"info_animate":{"model_continue":null,"speed":null},"type_item":"text","text":"祥符区八里湾基地"}]},{"info_pos":{"x":0,"y":16,"w":160,"h":16},"list_item":[{"info_animate":{"model_continue":null,"speed":null},"type_item":"text","text":""}]},{"info_pos":{"x":0,"y":32,"w":160,"h":16},"list_item":[{"info_animate":{"model_continue":null,"speed":null},"type_item":"text","text":""}]},{"info_pos":{"x":0,"y":48,"w":160,"h":16},"list_item":[{"info_animate":{"model_continue":null,"speed":null},"type_item":"text","text":""}]},{"info_pos":{"x":0,"y":64,"w":160,"h":16},"list_item":[{"info_animate":{"model_continue":null,"speed":null},"type_item":"text","text":""}]}],"id_pro":1},"ids_dev":"1214120042","sno":1}&ts=1655453112&type=pkts_program&user=zzokq&key=b7d7e5c520bcdd47351bedc502a4b4b3

[2022-06-17 16:05:11]发送展示数据指令：{"user":"zzokq","ts":"1655453112","sendmsg":"{\"pkts_program\":{\"property_pro\":{\"width\":80,\"height\":160},\"list_region\":[{\"info_pos\":{\"x\":0,\"y\":0,\"w\":160,\"h\":16},\"list_item\":[{\"info_animate\":{\"model_continue\":null,\"speed\":null},\"type_item\":\"text\",\"text\":\"祥符区八里湾基地\"}]},{\"info_pos\":{\"x\":0,\"y\":16,\"w\":160,\"h\":16},\"list_item\":[{\"info_animate\":{\"model_continue\":null,\"speed\":null},\"type_item\":\"text\",\"text\":\"\"}]},{\"info_pos\":{\"x\":0,\"y\":32,\"w\":160,\"h\":16},\"list_item\":[{\"info_animate\":{\"model_continue\":null,\"speed\":null},\"type_item\":\"text\",\"text\":\"\"}]},{\"info_pos\":{\"x\":0,\"y\":48,\"w\":160,\"h\":16},\"list_item\":[{\"info_animate\":{\"model_continue\":null,\"speed\":null},\"type_item\":\"text\",\"text\":\"\"}]},{\"info_pos\":{\"x\":0,\"y\":64,\"w\":160,\"h\":16},\"list_item\":[{\"info_animate\":{\"model_continue\":null,\"speed\":null},\"type_item\":\"text\",\"text\":\"\"}]}],\"id_pro\":1},\"ids_dev\":\"1214120042\",\"sno\":1}","type":"pkts_program","token":"BC81EB8038F9E73D06BB512FDAD8F7F6"}

[2022-06-17 16:05:11]收到：{"sno":1352790120}

[2022-06-17 16:05:25]发:1E 03 00 00 00 01 86 65

[2022-06-17 16:05:25]Socket事件_发送成功:{"devId":"okq20201106301","err":"","func":100,"message":"keep-alive"}

[2022-06-17 16:05:26]小气候数据读取指令连续5次发送未收到回复，指令为：1E 03 00 00 00 01 86 65

[2022-06-17 16:05:26]发:03 03 00 12 00 01 25 ED

[2022-06-17 16:05:27]协议:10  收到:03 03 02 00 60 C1 AC

[2022-06-17 16:05:27]发:03 03 00 13 00 01 74 2D

[2022-06-17 16:05:27]协议:10  收到:03 03 02 01 05 00 17

[2022-06-17 16:05:27]发:03 03 00 06 00 01 65 E9

[2022-06-17 16:05:27]协议:10  收到:03 03 02 02 69 00 CA

[2022-06-17 16:05:27]发:03 03 00 15 00 01 94 2C

[2022-06-17 16:05:27]协议:10  收到:03 03 02 02 4A 41 13

[2022-06-17 16:05:27]程序运行磁盘剩余空间：235.7835 GB

[2022-06-17 16:05:27]区域1 标题：祥符区八里湾基地

[2022-06-17 16:05:28]区域2 内容：

[2022-06-17 16:05:28]区域3 内容：

[2022-06-17 16:05:28]区域4 内容：

[2022-06-17 16:05:28]区域5 内容：

[2022-06-17 16:05:28]Get token md5 Str：sendmsg={"cmd":{"delete":{"del_all":1}},"ids_dev":"1214120042","sno":1}&ts=1655453128&type=pkts_program&user=zzokq&key=b7d7e5c520bcdd47351bedc502a4b4b3

[2022-06-17 16:05:28]发送清屏指令：{"user":"zzokq","ts":"1655453128","sendmsg":"{\"cmd\":{\"delete\":{\"del_all\":1}},\"ids_dev\":\"1214120042\",\"sno\":1}","type":"pkts_program","token":"BEE29E657C59959FDF56D90AF00C1A82"}

[2022-06-17 16:05:28]收到：{"sno":1352790282}

[2022-06-17 16:05:28]Get token md5 Str：sendmsg={"pkts_program":{"property_pro":{"width":80,"height":160},"list_region":[{"info_pos":{"x":0,"y":0,"w":160,"h":16},"list_item":[{"info_animate":{"model_continue":null,"speed":null},"type_item":"text","text":"祥符区八里湾基地"}]},{"info_pos":{"x":0,"y":16,"w":160,"h":16},"list_item":[{"info_animate":{"model_continue":null,"speed":null},"type_item":"text","text":""}]},{"info_pos":{"x":0,"y":32,"w":160,"h":16},"list_item":[{"info_animate":{"model_continue":null,"speed":null},"type_item":"text","text":""}]},{"info_pos":{"x":0,"y":48,"w":160,"h":16},"list_item":[{"info_animate":{"model_continue":null,"speed":null},"type_item":"text","text":""}]},{"info_pos":{"x":0,"y":64,"w":160,"h":16},"list_item":[{"info_animate":{"model_continue":null,"speed":null},"type_item":"text","text":""}]}],"id_pro":1},"ids_dev":"1214120042","sno":1}&ts=1655453128&type=pkts_program&user=zzokq&key=b7d7e5c520bcdd47351bedc502a4b4b3

[2022-06-17 16:05:28]发送展示数据指令：{"user":"zzokq","ts":"1655453128","sendmsg":"{\"pkts_program\":{\"property_pro\":{\"width\":80,\"height\":160},\"list_region\":[{\"info_pos\":{\"x\":0,\"y\":0,\"w\":160,\"h\":16},\"list_item\":[{\"info_animate\":{\"model_continue\":null,\"speed\":null},\"type_item\":\"text\",\"text\":\"祥符区八里湾基地\"}]},{\"info_pos\":{\"x\":0,\"y\":16,\"w\":160,\"h\":16},\"list_item\":[{\"info_animate\":{\"model_continue\":null,\"speed\":null},\"type_item\":\"text\",\"text\":\"\"}]},{\"info_pos\":{\"x\":0,\"y\":32,\"w\":160,\"h\":16},\"list_item\":[{\"info_animate\":{\"model_continue\":null,\"speed\":null},\"type_item\":\"text\",\"text\":\"\"}]},{\"info_pos\":{\"x\":0,\"y\":48,\"w\":160,\"h\":16},\"list_item\":[{\"info_animate\":{\"model_continue\":null,\"speed\":null},\"type_item\":\"text\",\"text\":\"\"}]},{\"info_pos\":{\"x\":0,\"y\":64,\"w\":160,\"h\":16},\"list_item\":[{\"info_animate\":{\"model_continue\":null,\"speed\":null},\"type_item\":\"text\",\"text\":\"\"}]}],\"id_pro\":1},\"ids_dev\":\"1214120042\",\"sno\":1}","type":"pkts_program","token":"4E481EC099E767ED25D4B5279DB573F8"}

[2022-06-17 16:05:28]收到：{"sno":1352790284}

[2022-06-17 16:05:55]Socket事件_发送成功:{"devId":"okq20201106301","err":"","func":100,"message":"keep-alive"}

[2022-06-17 16:06:38]串口:COM99打开故障

[2022-06-17 16:06:39]led屏串口打开失败！

[2022-06-17 16:06:41]小气候串口打开成功！

[2022-06-17 16:06:41]设备被启动！

[2022-06-17 16:06:41]与服务器连接成功！

[2022-06-17 16:06:42]串口:COM6打开故障

[2022-06-17 16:06:42]没有设备，请选择！

[2022-06-17 16:06:42]没有设备，请选择！

[2022-06-17 16:06:42]没有设备，请选择！

[2022-06-17 16:07:11]Socket事件_发送成功:{"devId":"okq20201106301","err":"","func":100,"message":"keep-alive"}

[2022-06-17 16:07:41]发:AA 00 64 01 A5

[2022-06-17 16:07:41]Socket事件_发送成功:{"devId":"okq20201106301","err":"","func":100,"message":"keep-alive"}

[2022-06-17 16:07:42]小气候数据读取指令连续5次发送未收到回复，指令为：AA 00 64 01 A5

[2022-06-17 16:07:42]发:AA 00 64 02 A5

[2022-06-17 16:07:43]小气候数据读取指令连续5次发送未收到回复，指令为：AA 00 64 02 A5

[2022-06-17 16:07:43]发:AA 00 64 03 A5

[2022-06-17 16:07:44]小气候数据读取指令连续5次发送未收到回复，指令为：AA 00 64 03 A5

[2022-06-17 16:07:44]发:AA 00 64 04 A5

[2022-06-17 16:07:46]小气候数据读取指令连续5次发送未收到回复，指令为：AA 00 64 04 A5

[2022-06-17 16:07:46]发:AA 00 64 05 A5

[2022-06-17 16:07:47]小气候数据读取指令连续5次发送未收到回复，指令为：AA 00 64 05 A5

[2022-06-17 16:07:47]发:AA 00 64 06 A5

[2022-06-17 16:07:48]小气候数据读取指令连续5次发送未收到回复，指令为：AA 00 64 06 A5

[2022-06-17 16:07:48]发:AA 00 64 07 A5

[2022-06-17 16:07:50]小气候数据读取指令连续5次发送未收到回复，指令为：AA 00 64 07 A5

[2022-06-17 16:07:50]发:AA 00 64 08 A5

[2022-06-17 16:07:51]小气候数据读取指令连续5次发送未收到回复，指令为：AA 00 64 08 A5

[2022-06-17 16:07:51]发:AA 00 64 0A A5

[2022-06-17 16:07:52]小气候数据读取指令连续5次发送未收到回复，指令为：AA 00 64 0A A5

[2022-06-17 16:07:52]发:AA 00 64 0B A5

[2022-06-17 16:07:53]小气候数据读取指令连续5次发送未收到回复，指令为：AA 00 64 0B A5

[2022-06-17 16:07:53]发:AA 00 64 0C A5

[2022-06-17 16:07:55]小气候数据读取指令连续5次发送未收到回复，指令为：AA 00 64 0C A5

[2022-06-17 16:07:55]发:AA 00 64 0D A5

[2022-06-17 16:07:56]小气候数据读取指令连续5次发送未收到回复，指令为：AA 00 64 0D A5

[2022-06-17 16:07:56]发:AA 00 64 0E A5

[2022-06-17 16:07:57]小气候数据读取指令连续5次发送未收到回复，指令为：AA 00 64 0E A5

[2022-06-17 16:07:57]发:AA 00 64 0F A5

[2022-06-17 16:07:58]小气候数据读取指令连续5次发送未收到回复，指令为：AA 00 64 0F A5

[2022-06-17 16:07:58]发:AA 00 64 31 A5

[2022-06-17 16:08:00]小气候数据读取指令连续5次发送未收到回复，指令为：AA 00 64 31 A5

[2022-06-17 16:08:00]发:09 03 00 00 00 01 85 42

[2022-06-17 16:08:01]小气候数据读取指令连续5次发送未收到回复，指令为：09 03 00 00 00 01 85 42

[2022-06-17 16:08:01]发:15 03 00 00 00 01 87 1E

[2022-06-17 16:08:02]小气候数据读取指令连续5次发送未收到回复，指令为：15 03 00 00 00 01 87 1E

[2022-06-17 16:08:02]发:1D 03 00 00 00 01 86 56

[2022-06-17 16:08:03]小气候数据读取指令连续5次发送未收到回复，指令为：1D 03 00 00 00 01 86 56

[2022-06-17 16:08:03]发:20 03 00 00 00 01 82 BB

[2022-06-17 16:08:05]小气候数据读取指令连续5次发送未收到回复，指令为：20 03 00 00 00 01 82 BB

[2022-06-17 16:08:05]发:21 03 00 00 00 01 83 6A

[2022-06-17 16:08:06]小气候数据读取指令连续5次发送未收到回复，指令为：21 03 00 00 00 01 83 6A

[2022-06-17 16:08:06]发:1E 03 00 00 00 01 86 65

[2022-06-17 16:08:07]小气候数据读取指令连续5次发送未收到回复，指令为：1E 03 00 00 00 01 86 65

[2022-06-17 16:08:07]发:14 03 00 00 00 02 C6 CE

[2022-06-17 16:08:08]小气候数据读取指令连续5次发送未收到回复，指令为：14 03 00 00 00 02 C6 CE

[2022-06-17 16:08:08]发:10 03 00 00 00 02 C7 4A

[2022-06-17 16:08:10]小气候数据读取指令连续5次发送未收到回复，指令为：10 03 00 00 00 02 C7 4A

[2022-06-17 16:08:10]发:16 03 01 00 00 02 D0 C6

[2022-06-17 16:08:11]Socket事件_发送成功:{"devId":"okq20201106301","err":"","func":100,"message":"keep-alive"}

[2022-06-17 16:08:11]小气候数据读取指令连续5次发送未收到回复，指令为：16 03 01 00 00 02 D0 C6

[2022-06-17 16:08:11]发:17 03 00 2A 00 01 A7 34

[2022-06-17 16:08:12]小气候数据读取指令连续5次发送未收到回复，指令为：17 03 00 2A 00 01 A7 34

[2022-06-17 16:08:12]发:18 03 00 2A 00 01 A7 34

[2022-06-17 16:08:13]小气候数据读取指令连续5次发送未收到回复，指令为：18 03 00 2A 00 01 A7 34

[2022-06-17 16:08:13]发:06 03 00 00 00 01 85 BD

[2022-06-17 16:08:15]小气候数据读取指令连续5次发送未收到回复，指令为：06 03 00 00 00 01 85 BD

[2022-06-17 16:08:15]发:07 03 00 00 00 01 84 6C

[2022-06-17 16:08:16]小气候数据读取指令连续5次发送未收到回复，指令为：07 03 00 00 00 01 84 6C

[2022-06-17 16:08:16]发:0A 03 00 00 00 01 85 71

[2022-06-17 16:08:17]小气候数据读取指令连续5次发送未收到回复，指令为：0A 03 00 00 00 01 85 71

[2022-06-17 16:08:17]发:01 03 00 01 00 01 D5 CA

[2022-06-17 16:08:19]小气候数据读取指令连续5次发送未收到回复，指令为：01 03 00 01 00 01 D5 CA

[2022-06-17 16:08:19]发:01 03 00 02 00 01 25 CA

[2022-06-17 16:08:20]小气候数据读取指令连续5次发送未收到回复，指令为：01 03 00 02 00 01 25 CA

[2022-06-17 16:08:20]发:01 03 00 05 00 01 94 0B

[2022-06-17 16:08:21]小气候数据读取指令连续5次发送未收到回复，指令为：01 03 00 05 00 01 94 0B

[2022-06-17 16:08:21]发:01 03 00 04 00 02 85 CA

[2022-06-17 16:08:22]小气候数据读取指令连续5次发送未收到回复，指令为：01 03 00 04 00 02 85 CA

[2022-06-17 16:08:22]发:03 03 00 12 00 01 25 ED

[2022-06-17 16:08:23]协议:10  收到:03 03 02 00 60 C1 AC

[2022-06-17 16:08:23]发:03 03 00 13 00 01 74 2D

[2022-06-17 16:08:23]协议:10  收到:03 03 02 01 05 00 17

[2022-06-17 16:08:23]发:03 03 00 06 00 01 65 E9

[2022-06-17 16:08:23]协议:10  收到:03 03 02 02 69 00 CA

[2022-06-17 16:08:23]发:03 03 00 15 00 01 94 2C

[2022-06-17 16:08:23]协议:10  收到:03 03 02 02 4B 80 D3

[2022-06-17 16:08:23]程序运行磁盘剩余空间：235.7835 GB

[2022-06-17 16:08:41]Socket事件_发送成功:{"devId":"okq20201106301","err":"","func":100,"message":"keep-alive"}

[2022-06-17 16:08:42]发:1E 03 00 00 00 01 86 65

[2022-06-17 16:08:46]小气候数据读取指令连续5次发送未收到回复，指令为：1E 03 00 00 00 01 86 65

[2022-06-17 16:08:54]发:03 03 00 12 00 01 25 ED

[2022-06-17 16:08:55]协议:10  收到:03 03 02 00 5E 40 7C

[2022-06-17 16:08:55]发:03 03 00 13 00 01 74 2D

[2022-06-17 16:08:56]协议:10  收到:03 03 02 01 05 00 17

[2022-06-17 16:08:56]发:03 03 00 06 00 01 65 E9

[2022-06-17 16:08:57]协议:10  收到:03 03 02 02 69 00 CA

[2022-06-17 16:08:58]发:03 03 00 15 00 01 94 2C

[2022-06-17 16:09:00]协议:10  收到:03 03 02 02 4C C1 11

[2022-06-17 16:09:01]程序运行磁盘剩余空间：235.7835 GB

[2022-06-17 16:09:11]Socket事件_发送成功:{"devId":"okq20201106301","err":"","func":100,"message":"keep-alive"}

[2022-06-17 16:10:28]串口:COM99打开故障

[2022-06-17 16:10:28]led屏串口打开失败！

[2022-06-17 16:10:29]小气候串口打开成功！

[2022-06-17 16:10:29]设备被启动！

[2022-06-17 16:10:29]与服务器连接成功！

[2022-06-17 16:10:30]串口:COM6打开故障

[2022-06-17 16:10:30]没有设备，请选择！

[2022-06-17 16:10:31]没有设备，请选择！

[2022-06-17 16:10:31]没有设备，请选择！

[2022-06-17 16:10:59]Socket事件_发送成功:{"devId":"okq20201106301","err":"","func":100,"message":"keep-alive"}

[2022-06-17 16:11:29]发:AA 00 64 01 A5

[2022-06-17 16:11:29]Socket事件_发送成功:{"devId":"okq20201106301","err":"","func":100,"message":"keep-alive"}

[2022-06-17 16:11:30]小气候数据读取指令连续5次发送未收到回复，指令为：AA 00 64 01 A5

[2022-06-17 16:11:30]发:AA 00 64 02 A5

[2022-06-17 16:11:31]小气候数据读取指令连续5次发送未收到回复，指令为：AA 00 64 02 A5

[2022-06-17 16:11:31]发:AA 00 64 03 A5

[2022-06-17 16:11:33]小气候数据读取指令连续5次发送未收到回复，指令为：AA 00 64 03 A5

[2022-06-17 16:11:33]发:AA 00 64 04 A5

[2022-06-17 16:11:34]小气候数据读取指令连续5次发送未收到回复，指令为：AA 00 64 04 A5

[2022-06-17 16:11:34]发:AA 00 64 05 A5

[2022-06-17 16:11:35]小气候数据读取指令连续5次发送未收到回复，指令为：AA 00 64 05 A5

[2022-06-17 16:11:35]发:AA 00 64 06 A5

[2022-06-17 16:11:37]小气候数据读取指令连续5次发送未收到回复，指令为：AA 00 64 06 A5

[2022-06-17 16:11:37]发:AA 00 64 07 A5

[2022-06-17 16:11:38]小气候数据读取指令连续5次发送未收到回复，指令为：AA 00 64 07 A5

[2022-06-17 16:11:38]发:AA 00 64 08 A5

[2022-06-17 16:11:39]小气候数据读取指令连续5次发送未收到回复，指令为：AA 00 64 08 A5

[2022-06-17 16:11:39]发:AA 00 64 0A A5

[2022-06-17 16:11:40]小气候数据读取指令连续5次发送未收到回复，指令为：AA 00 64 0A A5

[2022-06-17 16:11:40]发:AA 00 64 0B A5

[2022-06-17 16:11:42]小气候数据读取指令连续5次发送未收到回复，指令为：AA 00 64 0B A5

[2022-06-17 16:11:42]发:AA 00 64 0C A5

[2022-06-17 16:11:43]小气候数据读取指令连续5次发送未收到回复，指令为：AA 00 64 0C A5

[2022-06-17 16:11:43]发:AA 00 64 0D A5

[2022-06-17 16:11:44]小气候数据读取指令连续5次发送未收到回复，指令为：AA 00 64 0D A5

[2022-06-17 16:11:44]发:AA 00 64 0E A5

[2022-06-17 16:11:45]小气候数据读取指令连续5次发送未收到回复，指令为：AA 00 64 0E A5

[2022-06-17 16:11:45]发:AA 00 64 0F A5

[2022-06-17 16:11:47]小气候数据读取指令连续5次发送未收到回复，指令为：AA 00 64 0F A5

[2022-06-17 16:11:47]发:AA 00 64 31 A5

[2022-06-17 16:11:48]小气候数据读取指令连续5次发送未收到回复，指令为：AA 00 64 31 A5

[2022-06-17 16:11:48]发:09 03 00 00 00 01 85 42

[2022-06-17 16:11:49]小气候数据读取指令连续5次发送未收到回复，指令为：09 03 00 00 00 01 85 42

[2022-06-17 16:11:49]发:15 03 00 00 00 01 87 1E

[2022-06-17 16:11:50]小气候数据读取指令连续5次发送未收到回复，指令为：15 03 00 00 00 01 87 1E

[2022-06-17 16:11:50]发:1D 03 00 00 00 01 86 56

[2022-06-17 16:11:52]小气候数据读取指令连续5次发送未收到回复，指令为：1D 03 00 00 00 01 86 56

[2022-06-17 16:11:52]发:20 03 00 00 00 01 82 BB

[2022-06-17 16:11:53]小气候数据读取指令连续5次发送未收到回复，指令为：20 03 00 00 00 01 82 BB

[2022-06-17 16:11:53]发:21 03 00 00 00 01 83 6A

[2022-06-17 16:11:54]小气候数据读取指令连续5次发送未收到回复，指令为：21 03 00 00 00 01 83 6A

[2022-06-17 16:11:54]发:1E 03 00 00 00 01 86 65

[2022-06-17 16:11:55]小气候数据读取指令连续5次发送未收到回复，指令为：1E 03 00 00 00 01 86 65

[2022-06-17 16:11:55]发:14 03 00 00 00 02 C6 CE

[2022-06-17 16:11:57]小气候数据读取指令连续5次发送未收到回复，指令为：14 03 00 00 00 02 C6 CE

[2022-06-17 16:11:57]发:10 03 00 00 00 02 C7 4A

[2022-06-17 16:11:58]小气候数据读取指令连续5次发送未收到回复，指令为：10 03 00 00 00 02 C7 4A

[2022-06-17 16:11:58]发:16 03 01 00 00 02 D0 C6

[2022-06-17 16:11:59]Socket事件_发送成功:{"devId":"okq20201106301","err":"","func":100,"message":"keep-alive"}

[2022-06-17 16:11:59]小气候数据读取指令连续5次发送未收到回复，指令为：16 03 01 00 00 02 D0 C6

[2022-06-17 16:11:59]发:17 03 00 2A 00 01 A7 34

[2022-06-17 16:12:00]小气候数据读取指令连续5次发送未收到回复，指令为：17 03 00 2A 00 01 A7 34

[2022-06-17 16:12:00]发:18 03 00 2A 00 01 A7 34

[2022-06-17 16:12:02]小气候数据读取指令连续5次发送未收到回复，指令为：18 03 00 2A 00 01 A7 34

[2022-06-17 16:12:02]发:06 03 00 00 00 01 85 BD

[2022-06-17 16:12:03]小气候数据读取指令连续5次发送未收到回复，指令为：06 03 00 00 00 01 85 BD

[2022-06-17 16:12:03]发:07 03 00 00 00 01 84 6C

[2022-06-17 16:12:04]小气候数据读取指令连续5次发送未收到回复，指令为：07 03 00 00 00 01 84 6C

[2022-06-17 16:12:04]发:0A 03 00 00 00 01 85 71

[2022-06-17 16:12:06]小气候数据读取指令连续5次发送未收到回复，指令为：0A 03 00 00 00 01 85 71

[2022-06-17 16:12:06]发:01 03 00 01 00 01 D5 CA

[2022-06-17 16:12:07]小气候数据读取指令连续5次发送未收到回复，指令为：01 03 00 01 00 01 D5 CA

[2022-06-17 16:12:07]发:01 03 00 02 00 01 25 CA

[2022-06-17 16:12:08]小气候数据读取指令连续5次发送未收到回复，指令为：01 03 00 02 00 01 25 CA

[2022-06-17 16:12:08]发:01 03 00 05 00 01 94 0B

[2022-06-17 16:12:09]小气候数据读取指令连续5次发送未收到回复，指令为：01 03 00 05 00 01 94 0B

[2022-06-17 16:12:09]发:01 03 00 04 00 02 85 CA

[2022-06-17 16:12:11]小气候数据读取指令连续5次发送未收到回复，指令为：01 03 00 04 00 02 85 CA

[2022-06-17 16:12:11]发:03 03 00 12 00 01 25 ED

[2022-06-17 16:12:11]协议:10  收到:03 03 02 00 5F 81 BC

[2022-06-17 16:12:11]发:03 03 00 13 00 01 74 2D

[2022-06-17 16:12:11]协议:10  收到:03 03 02 01 05 00 17

[2022-06-17 16:12:11]发:03 03 00 06 00 01 65 E9

[2022-06-17 16:12:11]协议:10  收到:03 03 02 02 69 00 CA

[2022-06-17 16:12:11]发:03 03 00 15 00 01 94 2C

[2022-06-17 16:12:12]协议:10  收到:03 03 02 02 4C C1 11

[2022-06-17 16:12:12]程序运行磁盘剩余空间：235.7835 GB

[2022-06-17 16:14:58]串口:COM99打开故障

[2022-06-17 16:14:58]led屏串口打开失败！

[2022-06-17 16:15:00]小气候串口打开成功！

[2022-06-17 16:15:00]设备被启动！

[2022-06-17 16:15:00]与服务器连接成功！

[2022-06-17 16:15:01]串口:COM6打开故障

[2022-06-17 16:15:01]没有设备，请选择！

[2022-06-17 16:15:02]没有设备，请选择！

[2022-06-17 16:15:02]没有设备，请选择！

[2022-06-17 16:15:30]Socket事件_发送成功:{"devId":"okq20201106301","err":"","func":100,"message":"keep-alive"}

[2022-06-17 16:16:00]发:AA 00 64 01 A5

[2022-06-17 16:16:00]Socket事件_发送成功:{"devId":"okq20201106301","err":"","func":100,"message":"keep-alive"}

[2022-06-17 16:16:01]小气候数据读取指令连续5次发送未收到回复，指令为：AA 00 64 01 A5

[2022-06-17 16:16:01]发:AA 00 64 02 A5

[2022-06-17 16:16:03]小气候数据读取指令连续5次发送未收到回复，指令为：AA 00 64 02 A5

[2022-06-17 16:16:03]发:AA 00 64 03 A5

[2022-06-17 16:16:04]小气候数据读取指令连续5次发送未收到回复，指令为：AA 00 64 03 A5

[2022-06-17 16:16:04]发:AA 00 64 04 A5

[2022-06-17 16:16:05]小气候数据读取指令连续5次发送未收到回复，指令为：AA 00 64 04 A5

[2022-06-17 16:16:05]发:AA 00 64 05 A5

[2022-06-17 16:16:06]小气候数据读取指令连续5次发送未收到回复，指令为：AA 00 64 05 A5

[2022-06-17 16:16:06]发:AA 00 64 06 A5

[2022-06-17 16:16:08]小气候数据读取指令连续5次发送未收到回复，指令为：AA 00 64 06 A5

[2022-06-17 16:16:08]发:AA 00 64 07 A5

[2022-06-17 16:16:09]小气候数据读取指令连续5次发送未收到回复，指令为：AA 00 64 07 A5

[2022-06-17 16:16:09]发:AA 00 64 08 A5

[2022-06-17 16:16:10]小气候数据读取指令连续5次发送未收到回复，指令为：AA 00 64 08 A5

[2022-06-17 16:16:10]发:AA 00 64 0A A5

[2022-06-17 16:16:11]小气候数据读取指令连续5次发送未收到回复，指令为：AA 00 64 0A A5

[2022-06-17 16:16:11]发:AA 00 64 0B A5

[2022-06-17 16:16:13]小气候数据读取指令连续5次发送未收到回复，指令为：AA 00 64 0B A5

[2022-06-17 16:16:13]发:AA 00 64 0C A5

[2022-06-17 16:16:14]小气候数据读取指令连续5次发送未收到回复，指令为：AA 00 64 0C A5

[2022-06-17 16:16:14]发:AA 00 64 0D A5

[2022-06-17 16:16:15]小气候数据读取指令连续5次发送未收到回复，指令为：AA 00 64 0D A5

[2022-06-17 16:16:15]发:AA 00 64 0E A5

[2022-06-17 16:16:16]小气候数据读取指令连续5次发送未收到回复，指令为：AA 00 64 0E A5

[2022-06-17 16:16:16]发:AA 00 64 0F A5

[2022-06-17 16:16:18]小气候数据读取指令连续5次发送未收到回复，指令为：AA 00 64 0F A5

[2022-06-17 16:16:18]发:AA 00 64 31 A5

[2022-06-17 16:16:19]小气候数据读取指令连续5次发送未收到回复，指令为：AA 00 64 31 A5

[2022-06-17 16:16:19]发:09 03 00 00 00 01 85 42

[2022-06-17 16:16:20]小气候数据读取指令连续5次发送未收到回复，指令为：09 03 00 00 00 01 85 42

[2022-06-17 16:16:20]发:15 03 00 00 00 01 87 1E

[2022-06-17 16:16:21]小气候数据读取指令连续5次发送未收到回复，指令为：15 03 00 00 00 01 87 1E

[2022-06-17 16:16:21]发:1D 03 00 00 00 01 86 56

[2022-06-17 16:16:23]小气候数据读取指令连续5次发送未收到回复，指令为：1D 03 00 00 00 01 86 56

[2022-06-17 16:16:23]发:20 03 00 00 00 01 82 BB

[2022-06-17 16:16:24]小气候数据读取指令连续5次发送未收到回复，指令为：20 03 00 00 00 01 82 BB

[2022-06-17 16:16:24]发:21 03 00 00 00 01 83 6A

[2022-06-17 16:16:25]小气候数据读取指令连续5次发送未收到回复，指令为：21 03 00 00 00 01 83 6A

[2022-06-17 16:16:25]发:1E 03 00 00 00 01 86 65

[2022-06-17 16:16:27]小气候数据读取指令连续5次发送未收到回复，指令为：1E 03 00 00 00 01 86 65

[2022-06-17 16:16:27]发:14 03 00 00 00 02 C6 CE

[2022-06-17 16:16:28]小气候数据读取指令连续5次发送未收到回复，指令为：14 03 00 00 00 02 C6 CE

[2022-06-17 16:16:28]发:10 03 00 00 00 02 C7 4A

[2022-06-17 16:16:29]小气候数据读取指令连续5次发送未收到回复，指令为：10 03 00 00 00 02 C7 4A

[2022-06-17 16:16:29]发:16 03 01 00 00 02 D0 C6

[2022-06-17 16:16:30]Socket事件_发送成功:{"devId":"okq20201106301","err":"","func":100,"message":"keep-alive"}

[2022-06-17 16:16:30]小气候数据读取指令连续5次发送未收到回复，指令为：16 03 01 00 00 02 D0 C6

[2022-06-17 16:16:30]发:17 03 00 2A 00 01 A7 34

[2022-06-17 16:16:32]小气候数据读取指令连续5次发送未收到回复，指令为：17 03 00 2A 00 01 A7 34

[2022-06-17 16:16:32]发:18 03 00 2A 00 01 A7 34

[2022-06-17 16:16:33]小气候数据读取指令连续5次发送未收到回复，指令为：18 03 00 2A 00 01 A7 34

[2022-06-17 16:16:33]发:06 03 00 00 00 01 85 BD

[2022-06-17 16:16:34]小气候数据读取指令连续5次发送未收到回复，指令为：06 03 00 00 00 01 85 BD

[2022-06-17 16:16:34]发:07 03 00 00 00 01 84 6C

[2022-06-17 16:16:35]小气候数据读取指令连续5次发送未收到回复，指令为：07 03 00 00 00 01 84 6C

[2022-06-17 16:16:35]发:0A 03 00 00 00 01 85 71

[2022-06-17 16:16:37]小气候数据读取指令连续5次发送未收到回复，指令为：0A 03 00 00 00 01 85 71

[2022-06-17 16:16:37]发:01 03 00 01 00 01 D5 CA

[2022-06-17 16:16:38]小气候数据读取指令连续5次发送未收到回复，指令为：01 03 00 01 00 01 D5 CA

[2022-06-17 16:16:38]发:01 03 00 02 00 01 25 CA

[2022-06-17 16:16:39]小气候数据读取指令连续5次发送未收到回复，指令为：01 03 00 02 00 01 25 CA

[2022-06-17 16:16:39]发:01 03 00 05 00 01 94 0B

[2022-06-17 16:16:40]小气候数据读取指令连续5次发送未收到回复，指令为：01 03 00 05 00 01 94 0B

[2022-06-17 16:16:40]发:01 03 00 04 00 02 85 CA

[2022-06-17 16:16:42]小气候数据读取指令连续5次发送未收到回复，指令为：01 03 00 04 00 02 85 CA

[2022-06-17 16:16:42]发:03 03 00 12 00 01 25 ED

[2022-06-17 16:16:42]协议:10  收到:03 03 02 00 60 C1 AC

[2022-06-17 16:16:42]发:03 03 00 13 00 01 74 2D

[2022-06-17 16:16:42]协议:10  收到:03 03 02 01 05 00 17

[2022-06-17 16:16:42]发:03 03 00 06 00 01 65 E9

[2022-06-17 16:16:43]协议:10  收到:03 03 02 02 69 00 CA

[2022-06-17 16:16:43]发:03 03 00 15 00 01 94 2C

[2022-06-17 16:16:43]协议:10  收到:03 03 02 02 4B 80 D3

[2022-06-17 16:16:43]程序运行磁盘剩余空间：235.7835 GB

[2022-06-17 16:17:02]Socket事件_发送成功:{"devId":"okq20201106301","err":"","func":100,"message":"keep-alive"}

[2022-06-17 16:17:02]发:1E 03 00 00 00 01 86 65

[2022-06-17 16:17:19]小气候数据读取指令连续5次发送未收到回复，指令为：1E 03 00 00 00 01 86 65

[2022-06-17 16:17:19]发:03 03 00 12 00 01 25 ED

[2022-06-17 16:37:53]串口:COM99打开故障

[2022-06-17 16:37:53]led屏串口打开失败！

[2022-06-17 16:37:55]小气候串口打开成功！

[2022-06-17 16:37:56]设备被启动！

[2022-06-17 16:37:56]与服务器连接成功！

[2022-06-17 16:37:56]串口:COM6打开故障

[2022-06-17 16:37:57]没有设备，请选择！

[2022-06-17 16:37:57]没有设备，请选择！

[2022-06-17 16:37:57]没有设备，请选择！

[2022-06-17 16:38:26]Socket事件_发送成功:{"devId":"okq20201106301","err":"","func":100,"message":"keep-alive"}

[2022-06-17 16:38:55]发:AA 00 64 01 A5

[2022-06-17 16:38:56]Socket事件_发送成功:{"devId":"okq20201106301","err":"","func":100,"message":"keep-alive"}

[2022-06-17 16:38:57]小气候数据读取指令连续5次发送未收到回复，指令为：AA 00 64 01 A5

[2022-06-17 16:38:57]发:AA 00 64 02 A5

[2022-06-17 16:38:58]小气候数据读取指令连续5次发送未收到回复，指令为：AA 00 64 02 A5

[2022-06-17 16:38:58]发:AA 00 64 03 A5

[2022-06-17 16:38:59]小气候数据读取指令连续5次发送未收到回复，指令为：AA 00 64 03 A5

[2022-06-17 16:38:59]发:AA 00 64 04 A5

[2022-06-17 16:39:00]小气候数据读取指令连续5次发送未收到回复，指令为：AA 00 64 04 A5

[2022-06-17 16:39:00]发:AA 00 64 05 A5

[2022-06-17 16:39:02]小气候数据读取指令连续5次发送未收到回复，指令为：AA 00 64 05 A5

[2022-06-17 16:39:02]发:AA 00 64 06 A5

[2022-06-17 16:39:03]小气候数据读取指令连续5次发送未收到回复，指令为：AA 00 64 06 A5

[2022-06-17 16:39:03]发:AA 00 64 07 A5

[2022-06-17 16:39:04]小气候数据读取指令连续5次发送未收到回复，指令为：AA 00 64 07 A5

[2022-06-17 16:39:04]发:AA 00 64 08 A5

[2022-06-17 16:39:05]小气候数据读取指令连续5次发送未收到回复，指令为：AA 00 64 08 A5

[2022-06-17 16:39:05]发:AA 00 64 0A A5

[2022-06-17 16:39:07]小气候数据读取指令连续5次发送未收到回复，指令为：AA 00 64 0A A5

[2022-06-17 16:39:07]发:AA 00 64 0B A5

[2022-06-17 16:39:08]小气候数据读取指令连续5次发送未收到回复，指令为：AA 00 64 0B A5

[2022-06-17 16:39:08]发:AA 00 64 0C A5

[2022-06-17 16:39:09]小气候数据读取指令连续5次发送未收到回复，指令为：AA 00 64 0C A5

[2022-06-17 16:39:09]发:AA 00 64 0D A5

[2022-06-17 16:39:10]小气候数据读取指令连续5次发送未收到回复，指令为：AA 00 64 0D A5

[2022-06-17 16:39:10]发:AA 00 64 0E A5

[2022-06-17 16:39:12]小气候数据读取指令连续5次发送未收到回复，指令为：AA 00 64 0E A5

[2022-06-17 16:39:12]发:AA 00 64 0F A5

[2022-06-17 16:39:13]小气候数据读取指令连续5次发送未收到回复，指令为：AA 00 64 0F A5

[2022-06-17 16:39:13]发:AA 00 64 31 A5

[2022-06-17 16:39:14]小气候数据读取指令连续5次发送未收到回复，指令为：AA 00 64 31 A5

[2022-06-17 16:39:14]发:09 03 00 00 00 01 85 42

[2022-06-17 16:39:15]小气候数据读取指令连续5次发送未收到回复，指令为：09 03 00 00 00 01 85 42

[2022-06-17 16:39:15]发:15 03 00 00 00 01 87 1E

[2022-06-17 16:39:17]小气候数据读取指令连续5次发送未收到回复，指令为：15 03 00 00 00 01 87 1E

[2022-06-17 16:39:17]发:1D 03 00 00 00 01 86 56

[2022-06-17 16:39:18]小气候数据读取指令连续5次发送未收到回复，指令为：1D 03 00 00 00 01 86 56

[2022-06-17 16:39:18]发:20 03 00 00 00 01 82 BB

[2022-06-17 16:39:19]小气候数据读取指令连续5次发送未收到回复，指令为：20 03 00 00 00 01 82 BB

[2022-06-17 16:39:19]发:21 03 00 00 00 01 83 6A

[2022-06-17 16:39:20]小气候数据读取指令连续5次发送未收到回复，指令为：21 03 00 00 00 01 83 6A

[2022-06-17 16:39:20]发:1E 03 00 00 00 01 86 65

[2022-06-17 16:39:22]小气候数据读取指令连续5次发送未收到回复，指令为：1E 03 00 00 00 01 86 65

[2022-06-17 16:39:22]发:14 03 00 00 00 02 C6 CE

[2022-06-17 16:39:23]小气候数据读取指令连续5次发送未收到回复，指令为：14 03 00 00 00 02 C6 CE

[2022-06-17 16:39:23]发:10 03 00 00 00 02 C7 4A

[2022-06-17 16:39:24]小气候数据读取指令连续5次发送未收到回复，指令为：10 03 00 00 00 02 C7 4A

[2022-06-17 16:39:24]发:16 03 01 00 00 02 D0 C6

[2022-06-17 16:39:26]小气候数据读取指令连续5次发送未收到回复，指令为：16 03 01 00 00 02 D0 C6

[2022-06-17 16:39:26]发:17 03 00 2A 00 01 A7 34

[2022-06-17 16:39:26]Socket事件_发送成功:{"devId":"okq20201106301","err":"","func":100,"message":"keep-alive"}

[2022-06-17 16:39:27]小气候数据读取指令连续5次发送未收到回复，指令为：17 03 00 2A 00 01 A7 34

[2022-06-17 16:39:27]发:18 03 00 2A 00 01 A7 34

[2022-06-17 16:44:55]串口:COM99打开故障

[2022-06-17 16:44:55]led屏串口打开失败！

[2022-06-17 16:44:58]小气候串口打开成功！

[2022-06-17 16:44:58]设备被启动！

[2022-06-17 16:44:58]与服务器连接成功！

[2022-06-17 16:44:59]串口:COM6打开故障

[2022-06-17 16:44:59]没有设备，请选择！

[2022-06-17 16:44:59]没有设备，请选择！

[2022-06-17 16:44:59]没有设备，请选择！

[2022-06-17 16:45:28]Socket事件_发送成功:{"devId":"okq20201106301","err":"","func":100,"message":"keep-alive"}

[2022-06-17 16:45:58]发:AA 00 64 01 A5

[2022-06-17 16:45:58]Socket事件_发送成功:{"devId":"okq20201106301","err":"","func":100,"message":"keep-alive"}

[2022-06-17 16:45:59]小气候数据读取指令连续5次发送未收到回复，指令为：AA 00 64 01 A5

[2022-06-17 16:45:59]发:AA 00 64 02 A5

[2022-06-17 16:46:00]小气候数据读取指令连续5次发送未收到回复，指令为：AA 00 64 02 A5

[2022-06-17 16:46:00]发:AA 00 64 03 A5

[2022-06-17 16:46:01]小气候数据读取指令连续5次发送未收到回复，指令为：AA 00 64 03 A5

[2022-06-17 16:46:01]发:AA 00 64 04 A5

[2022-06-17 16:46:03]小气候数据读取指令连续5次发送未收到回复，指令为：AA 00 64 04 A5

[2022-06-17 16:46:03]发:AA 00 64 05 A5

[2022-06-17 16:46:04]小气候数据读取指令连续5次发送未收到回复，指令为：AA 00 64 05 A5

[2022-06-17 16:46:04]发:AA 00 64 06 A5

[2022-06-17 16:46:05]小气候数据读取指令连续5次发送未收到回复，指令为：AA 00 64 06 A5

[2022-06-17 16:46:05]发:AA 00 64 07 A5

[2022-06-17 16:46:07]小气候数据读取指令连续5次发送未收到回复，指令为：AA 00 64 07 A5

[2022-06-17 16:46:07]发:AA 00 64 08 A5

[2022-06-17 16:46:08]小气候数据读取指令连续5次发送未收到回复，指令为：AA 00 64 08 A5

[2022-06-17 16:46:08]发:AA 00 64 0A A5

[2022-06-17 16:46:09]小气候数据读取指令连续5次发送未收到回复，指令为：AA 00 64 0A A5

[2022-06-17 16:46:09]发:AA 00 64 0B A5

[2022-06-17 16:46:10]小气候数据读取指令连续5次发送未收到回复，指令为：AA 00 64 0B A5

[2022-06-17 16:46:10]发:AA 00 64 0C A5

[2022-06-17 16:57:56]串口:COM99打开故障

[2022-06-17 16:57:56]led屏串口打开失败！

[2022-06-17 16:57:58]串口:COM4打开故障

[2022-06-17 16:57:58]设备被启动！

[2022-06-17 16:57:58]与服务器连接成功！

[2022-06-17 16:57:59]串口:COM6打开故障

[2022-06-17 16:57:59]没有设备，请选择！

[2022-06-17 16:57:59]没有设备，请选择！

[2022-06-17 16:57:59]没有设备，请选择！

[2022-06-17 16:58:10]区域1 标题：祥符区八里湾基地

[2022-06-17 16:58:10]区域2 内容：土壤湿度:9.6%RH

[2022-06-17 16:58:10]区域3 内容：土壤温度:26.1℃

[2022-06-17 16:58:10]区域4 内容：土壤PH:6.17pH

[2022-06-17 16:58:10]区域5 内容：土壤EC:5871us/cm

[2022-06-17 16:58:10]Get token md5 Str：sendmsg={"cmd":{"delete":{"del_all":1}},"ids_dev":"1214120042","sno":1}&ts=1655456291&type=pkts_program&user=zzokq&key=9176631b39bed869e0a32c69fb4e3e4d

[2022-06-17 16:58:10]发送清屏指令：{"user":"zzokq","ts":"1655456291","sendmsg":"{\"cmd\":{\"delete\":{\"del_all\":1}},\"ids_dev\":\"1214120042\",\"sno\":1}","type":"pkts_program","token":"3E38357669677CB21C51A1E3337ACA04"}

[2022-06-17 16:58:11]收到：{"sno":1352861246}

[2022-06-17 16:58:11]Get token md5 Str：sendmsg={"pkts_program":{"property_pro":{"width":80,"height":160},"list_region":[{"info_pos":{"x":0,"y":0,"w":160,"h":16},"list_item":[{"info_animate":{"model_continue":null,"speed":null},"type_item":"text","text":"祥符区八里湾基地"}]},{"info_pos":{"x":0,"y":16,"w":160,"h":16},"list_item":[{"info_animate":{"model_continue":null,"speed":null},"type_item":"text","text":"土壤湿度:9.6%RH"}]},{"info_pos":{"x":0,"y":32,"w":160,"h":16},"list_item":[{"info_animate":{"model_continue":null,"speed":null},"type_item":"text","text":"土壤温度:26.1℃"}]},{"info_pos":{"x":0,"y":48,"w":160,"h":16},"list_item":[{"info_animate":{"model_continue":null,"speed":null},"type_item":"text","text":"土壤PH:6.17pH"}]},{"info_pos":{"x":0,"y":64,"w":160,"h":16},"list_item":[{"info_animate":{"model_continue":null,"speed":null},"type_item":"text","text":"土壤EC:5871us/cm"}]}],"id_pro":1},"ids_dev":"1214120042","sno":1}&ts=1655456291&type=pkts_program&user=zzokq&key=9176631b39bed869e0a32c69fb4e3e4d

[2022-06-17 16:58:11]发送展示数据指令：{"user":"zzokq","ts":"1655456291","sendmsg":"{\"pkts_program\":{\"property_pro\":{\"width\":80,\"height\":160},\"list_region\":[{\"info_pos\":{\"x\":0,\"y\":0,\"w\":160,\"h\":16},\"list_item\":[{\"info_animate\":{\"model_continue\":null,\"speed\":null},\"type_item\":\"text\",\"text\":\"祥符区八里湾基地\"}]},{\"info_pos\":{\"x\":0,\"y\":16,\"w\":160,\"h\":16},\"list_item\":[{\"info_animate\":{\"model_continue\":null,\"speed\":null},\"type_item\":\"text\",\"text\":\"土壤湿度:9.6%RH\"}]},{\"info_pos\":{\"x\":0,\"y\":32,\"w\":160,\"h\":16},\"list_item\":[{\"info_animate\":{\"model_continue\":null,\"speed\":null},\"type_item\":\"text\",\"text\":\"土壤温度:26.1℃\"}]},{\"info_pos\":{\"x\":0,\"y\":48,\"w\":160,\"h\":16},\"list_item\":[{\"info_animate\":{\"model_continue\":null,\"speed\":null},\"type_item\":\"text\",\"text\":\"土壤PH:6.17pH\"}]},{\"info_pos\":{\"x\":0,\"y\":64,\"w\":160,\"h\":16},\"list_item\":[{\"info_animate\":{\"model_continue\":null,\"speed\":null},\"type_item\":\"text\",\"text\":\"土壤EC:5871us/cm\"}]}],\"id_pro\":1},\"ids_dev\":\"1214120042\",\"sno\":1}","type":"pkts_program","token":"0E2D19CF3CB9D201F72B11515265F035"}

[2022-06-17 16:58:11]收到：{"sno":1352861250}

[2022-06-17 16:58:28]Socket事件_发送成功:{"devId":"okq20201106301","err":"","func":100,"message":"keep-alive"}

[2022-06-17 16:58:58]Socket事件_发送成功:{"devId":"okq20201106301","err":"","func":100,"message":"keep-alive"}

[2022-06-17 16:59:28]Socket事件_发送成功:{"devId":"okq20201106301","err":"","func":100,"message":"keep-alive"}

[2022-06-17 17:00:02]串口:COM99打开故障

[2022-06-17 17:00:02]led屏串口打开失败！

[2022-06-17 17:00:04]串口:COM4打开故障

[2022-06-17 17:00:04]设备被启动！

[2022-06-17 17:00:04]与服务器连接成功！

[2022-06-17 17:00:05]串口:COM6打开故障

[2022-06-17 17:00:05]没有设备，请选择！

[2022-06-17 17:00:06]没有设备，请选择！

[2022-06-17 17:00:06]没有设备，请选择！

[2022-06-17 17:00:37]串口:COM99打开故障

[2022-06-17 17:00:37]led屏串口打开失败！

[2022-06-17 17:00:39]串口:COM4打开故障

[2022-06-17 17:00:39]设备被启动！

[2022-06-17 17:00:39]与服务器连接成功！

[2022-06-17 17:00:39]串口:COM6打开故障

[2022-06-17 17:00:40]没有设备，请选择！

[2022-06-17 17:00:40]没有设备，请选择！

[2022-06-17 17:00:40]没有设备，请选择！

[2022-06-17 17:01:22]串口:COM99打开故障

[2022-06-17 17:01:22]led屏串口打开失败！

[2022-06-17 17:01:23]小气候串口打开成功！

[2022-06-17 17:01:24]设备被启动！

[2022-06-17 17:01:24]与服务器连接成功！

[2022-06-17 17:01:24]串口:COM6打开故障

[2022-06-17 17:01:25]没有设备，请选择！

